HEADER
"PSFversion" "1.00"
"simulator" "spectre"
"version" "20.1.0.298.isr9"
"date" "7:18:02 PM, Fri Nov 18, 2022"
"design" "* SRAM22 generated testbench for sramgen_sram_16x64m2w16_simple"
"analysis type" "tran"
"analysis name" "timeSweep"
"analysis description" "Transient Analysis `timeSweep': time = (0 s -> 80 ns)"
"xVecSorted" "ascending"
"tolerance.relative" 0.00100000
"start" 0.00000
"outputstart" 0.00000
"stop" 8.00000e-08
"step" 1.00000e-12
"istep" 0.00100000
"maxstep" 1.60000e-09
"ic" "all"
"useprevic" "no"
"skipdc" "no"
"reltol" 0.00100000
"abstol(V)" 1.00000e-06
"abstol(I)" 1.00000e-12
"temp" 25.0000
"tnom" 25.0000
"tempeffects" "all"
"errpreset" "moderate"
"method" "traponly"
"lteratio" 3.50000
"relref" "sigglobal"
"cmin" 0.00000
"gmin" 1.00000e-12
TYPE
"sweep" FLOAT DOUBLE PROP(
"key" "sweep"
)
"LogicV" FLOAT DOUBLE PROP(
"key" "node"
)
"Tau" FLOAT DOUBLE PROP(
"units" "N*m"
"key" "node"
"tolerance" 1.00000e-06
)
"Alpha" FLOAT DOUBLE PROP(
"units" "rads/s^2"
"key" "node"
"tolerance" 1.00000e-06
)
"Omega" FLOAT DOUBLE PROP(
"units" "rads/s"
"key" "node"
"tolerance" 1.00000e-06
)
"Theta" FLOAT DOUBLE PROP(
"units" "rads"
"key" "node"
"tolerance" 1.00000e-06
)
"F" FLOAT DOUBLE PROP(
"units" "N"
"key" "node"
"tolerance" 1.00000e-06
)
"Imp" FLOAT DOUBLE PROP(
"units" "m/s^3"
"key" "node"
"tolerance" 1.00000e-06
)
"Acc" FLOAT DOUBLE PROP(
"units" "m/s^2"
"key" "node"
"tolerance" 1.00000e-06
)
"Vel" FLOAT DOUBLE PROP(
"units" "m/s"
"key" "node"
"tolerance" 1.00000e-06
)
"Pos" FLOAT DOUBLE PROP(
"units" "m"
"key" "node"
"tolerance" 1.00000e-06
)
"Phi" FLOAT DOUBLE PROP(
"units" "Wb"
"key" "node"
"tolerance" 1.00000e-09
)
"V" FLOAT DOUBLE PROP(
"units" "V"
"key" "node"
"tolerance" 1.00000e-06
)
"I" FLOAT DOUBLE PROP(
"units" "A"
"key" "branch"
"tolerance" 1.00000e-12
)
"MMF" FLOAT DOUBLE PROP(
"units" "A*turn"
"key" "node"
"tolerance" 1.00000e-12
)
"Wb" FLOAT DOUBLE PROP(
"units" "Wb"
"key" "node"
"tolerance" 1.00000e-09
)
"Temp" FLOAT DOUBLE PROP(
"units" "C"
"key" "node"
"tolerance" 0.000100000
)
"Pwr" FLOAT DOUBLE PROP(
"units" "W"
"key" "node"
"tolerance" 1.00000e-09
)
"U" FLOAT DOUBLE PROP(
"units" ""
"key" "node"
"tolerance" 1.00000e-06
)
"V/Sec" FLOAT DOUBLE PROP(
"units" "V/s"
"key" "node"
"tolerance" 0.000100000
)
"I/Sec" FLOAT DOUBLE PROP(
"units" "A/s"
"key" "node"
"tolerance" 1.00000e-06
)
"1/Sec" FLOAT DOUBLE PROP(
"units" "1/s"
"key" "node"
"tolerance" 0.000100000
)
"HOD" FLOAT DOUBLE PROP(
"units" ""
"key" "node"
"tolerance" 0.0100000
)
"Q" FLOAT DOUBLE PROP(
"units" "coul"
"key" "node"
"tolerance" 1.00000e-14
)
SWEEP
"time" "sweep" PROP(
"sweep_direction" 0
"units" "s"
"plot" 0
"grid" 1
)
TRACE
"v(addr[5])" "V"
"v(addr[4])" "V"
"v(addr[3])" "V"
"v(addr[2])" "V"
"v(addr[1])" "V"
"v(addr[0])" "V"
"v(din[15])" "V"
"v(din[14])" "V"
"v(din[13])" "V"
"v(din[12])" "V"
"v(din[11])" "V"
"v(din[10])" "V"
"v(din[9])" "V"
"v(din[8])" "V"
"v(din[7])" "V"
"v(din[6])" "V"
"v(din[5])" "V"
"v(din[4])" "V"
"v(din[3])" "V"
"v(din[2])" "V"
"v(din[1])" "V"
"v(din[0])" "V"
"v(dout[15])" "V"
"v(dout[14])" "V"
"v(dout[13])" "V"
"v(dout[12])" "V"
"v(dout[11])" "V"
"v(dout[10])" "V"
"v(dout[9])" "V"
"v(dout[8])" "V"
"v(dout[7])" "V"
"v(dout[6])" "V"
"v(dout[5])" "V"
"v(dout[4])" "V"
"v(dout[3])" "V"
"v(dout[2])" "V"
"v(dout[1])" "V"
"v(dout[0])" "V"
"v(we)" "V"
"v(clk)" "V"
VALUE
"time" 0.000000000000000e+00
"v(addr[5])" 0.000000000000000e+00
"v(addr[4])" 0.000000000000000e+00
"v(addr[3])" 0.000000000000000e+00
"v(addr[2])" 0.000000000000000e+00
"v(addr[1])" 0.000000000000000e+00
"v(addr[0])" 0.000000000000000e+00
"v(din[15])" 0.000000000000000e+00
"v(din[14])" 0.000000000000000e+00
"v(din[13])" 0.000000000000000e+00
"v(din[12])" 0.000000000000000e+00
"v(din[11])" 0.000000000000000e+00
"v(din[10])" 0.000000000000000e+00
"v(din[9])" 0.000000000000000e+00
"v(din[8])" 0.000000000000000e+00
"v(din[7])" 0.000000000000000e+00
"v(din[6])" 0.000000000000000e+00
"v(din[5])" 0.000000000000000e+00
"v(din[4])" 0.000000000000000e+00
"v(din[3])" 0.000000000000000e+00
"v(din[2])" 0.000000000000000e+00
"v(din[1])" 0.000000000000000e+00
"v(din[0])" 0.000000000000000e+00
"v(dout[15])" 1.799151997522207e+00
"v(dout[14])" 1.799152356075387e+00
"v(dout[13])" 1.799152356075388e+00
"v(dout[12])" 1.799151997522207e+00
"v(dout[11])" 1.799152356075387e+00
"v(dout[10])" 1.799152356075387e+00
"v(dout[9])" 1.799152356075387e+00
"v(dout[8])" 1.799151997522210e+00
"v(dout[7])" 1.799151997522207e+00
"v(dout[6])" 1.799151997522207e+00
"v(dout[5])" 1.799151997522207e+00
"v(dout[4])" 1.799152356075388e+00
"v(dout[3])" 1.799152356075388e+00
"v(dout[2])" 1.799152356075387e+00
"v(dout[1])" 1.799151997522207e+00
"v(dout[0])" 1.799151997522207e+00
"v(we)" 0.000000000000000e+00
"v(clk)" 0.000000000000000e+00
"time" 4.168981481481483e-13
"v(addr[5])" 0.000000000000000e+00
"v(addr[4])" 0.000000000000000e+00
"v(addr[3])" 1.500833333333334e-02
"v(addr[2])" 1.500833333333334e-02
"v(addr[1])" 1.500833333333334e-02
"v(addr[0])" 0.000000000000000e+00
"v(din[15])" 0.000000000000000e+00
"v(din[14])" 0.000000000000000e+00
"v(din[13])" 0.000000000000000e+00
"v(din[12])" 0.000000000000000e+00
"v(din[11])" 1.500833333333334e-02
"v(din[10])" 0.000000000000000e+00
"v(din[9])" 0.000000000000000e+00
"v(din[8])" 1.500833333333334e-02
"v(din[7])" 0.000000000000000e+00
"v(din[6])" 0.000000000000000e+00
"v(din[5])" 0.000000000000000e+00
"v(din[4])" 1.500833333333334e-02
"v(din[3])" 0.000000000000000e+00
"v(din[2])" 0.000000000000000e+00
"v(din[1])" 0.000000000000000e+00
"v(din[0])" 1.500833333333334e-02
"v(dout[15])" 1.799152041682512e+00
"v(dout[14])" 1.799152390109589e+00
"v(dout[13])" 1.799152390109589e+00
"v(dout[12])" 1.799152041682512e+00
"v(dout[11])" 1.799152390109961e+00
"v(dout[10])" 1.799152390109589e+00
"v(dout[9])" 1.799152390109589e+00
"v(dout[8])" 1.799152041682888e+00
"v(dout[7])" 1.799152041682513e+00
"v(dout[6])" 1.799152041682513e+00
"v(dout[5])" 1.799152041682512e+00
"v(dout[4])" 1.799152390109962e+00
"v(dout[3])" 1.799152390109589e+00
"v(dout[2])" 1.799152390109589e+00
"v(dout[1])" 1.799152041682513e+00
"v(dout[0])" 1.799152041682885e+00
"v(we)" 1.500833333333334e-02
"v(clk)" 1.500833333333334e-02
"time" 9.099833652397787e-13
"v(addr[5])" 0.000000000000000e+00
"v(addr[4])" 0.000000000000000e+00
"v(addr[3])" 3.275940114863204e-02
"v(addr[2])" 3.275940114863204e-02
"v(addr[1])" 3.275940114863204e-02
"v(addr[0])" 0.000000000000000e+00
"v(din[15])" 0.000000000000000e+00
"v(din[14])" 0.000000000000000e+00
"v(din[13])" 0.000000000000000e+00
"v(din[12])" 0.000000000000000e+00
"v(din[11])" 3.275940114863204e-02
"v(din[10])" 0.000000000000000e+00
"v(din[9])" 0.000000000000000e+00
"v(din[8])" 3.275940114863204e-02
"v(din[7])" 0.000000000000000e+00
"v(din[6])" 0.000000000000000e+00
"v(din[5])" 0.000000000000000e+00
"v(din[4])" 3.275940114863204e-02
"v(din[3])" 0.000000000000000e+00
"v(din[2])" 0.000000000000000e+00
"v(din[1])" 0.000000000000000e+00
"v(din[0])" 3.275940114863204e-02
"v(dout[15])" 1.799152067262097e+00
"v(dout[14])" 1.799152404347330e+00
"v(dout[13])" 1.799152404347331e+00
"v(dout[12])" 1.799152067262098e+00
"v(dout[11])" 1.799152404347645e+00
"v(dout[10])" 1.799152404347330e+00
"v(dout[9])" 1.799152404347330e+00
"v(dout[8])" 1.799152067262416e+00
"v(dout[7])" 1.799152067262098e+00
"v(dout[6])" 1.799152067262098e+00
"v(dout[5])" 1.799152067262097e+00
"v(dout[4])" 1.799152404347646e+00
"v(dout[3])" 1.799152404347330e+00
"v(dout[2])" 1.799152404347330e+00
"v(dout[1])" 1.799152067262098e+00
"v(dout[0])" 1.799152067262413e+00
"v(we)" 3.275940114863204e-02
"v(clk)" 3.275940114863204e-02
"time" 1.598993849754663e-12
"v(addr[5])" 0.000000000000000e+00
"v(addr[4])" 0.000000000000000e+00
"v(addr[3])" 5.756377859116788e-02
"v(addr[2])" 5.756377859116788e-02
"v(addr[1])" 5.756377859116788e-02
"v(addr[0])" 0.000000000000000e+00
"v(din[15])" 0.000000000000000e+00
"v(din[14])" 0.000000000000000e+00
"v(din[13])" 0.000000000000000e+00
"v(din[12])" 0.000000000000000e+00
"v(din[11])" 5.756377859116788e-02
"v(din[10])" 0.000000000000000e+00
"v(din[9])" 0.000000000000000e+00
"v(din[8])" 5.756377859116788e-02
"v(din[7])" 0.000000000000000e+00
"v(din[6])" 0.000000000000000e+00
"v(din[5])" 0.000000000000000e+00
"v(din[4])" 5.756377859116788e-02
"v(din[3])" 0.000000000000000e+00
"v(din[2])" 0.000000000000000e+00
"v(din[1])" 0.000000000000000e+00
"v(din[0])" 5.756377859116788e-02
"v(dout[15])" 1.799152088444826e+00
"v(dout[14])" 1.799152410076250e+00
"v(dout[13])" 1.799152410076252e+00
"v(dout[12])" 1.799152088444827e+00
"v(dout[11])" 1.799152410076529e+00
"v(dout[10])" 1.799152410076250e+00
"v(dout[9])" 1.799152410076250e+00
"v(dout[8])" 1.799152088445109e+00
"v(dout[7])" 1.799152088444828e+00
"v(dout[6])" 1.799152088444828e+00
"v(dout[5])" 1.799152088444826e+00
"v(dout[4])" 1.799152410076529e+00
"v(dout[3])" 1.799152410076251e+00
"v(dout[2])" 1.799152410076250e+00
"v(dout[1])" 1.799152088444829e+00
"v(dout[0])" 1.799152088445105e+00
"v(we)" 5.756377859116788e-02
"v(clk)" 5.756377859116788e-02
"time" 2.936964407116644e-12
"v(addr[5])" 0.000000000000000e+00
"v(addr[4])" 0.000000000000000e+00
"v(addr[3])" 1.057307186561992e-01
"v(addr[2])" 1.057307186561992e-01
"v(addr[1])" 1.057307186561992e-01
"v(addr[0])" 0.000000000000000e+00
"v(din[15])" 0.000000000000000e+00
"v(din[14])" 0.000000000000000e+00
"v(din[13])" 0.000000000000000e+00
"v(din[12])" 0.000000000000000e+00
"v(din[11])" 1.057307186561992e-01
"v(din[10])" 0.000000000000000e+00
"v(din[9])" 0.000000000000000e+00
"v(din[8])" 1.057307186561992e-01
"v(din[7])" 0.000000000000000e+00
"v(din[6])" 0.000000000000000e+00
"v(din[5])" 0.000000000000000e+00
"v(din[4])" 1.057307186561992e-01
"v(din[3])" 0.000000000000000e+00
"v(din[2])" 0.000000000000000e+00
"v(din[1])" 0.000000000000000e+00
"v(din[0])" 1.057307186561992e-01
"v(dout[15])" 1.799152063454952e+00
"v(dout[14])" 1.799152357101897e+00
"v(dout[13])" 1.799152357101899e+00
"v(dout[12])" 1.799152063454953e+00
"v(dout[11])" 1.799152357101898e+00
"v(dout[10])" 1.799152357101897e+00
"v(dout[9])" 1.799152357101897e+00
"v(dout[8])" 1.799152063454956e+00
"v(dout[7])" 1.799152063454954e+00
"v(dout[6])" 1.799152063454954e+00
"v(dout[5])" 1.799152063454952e+00
"v(dout[4])" 1.799152357101898e+00
"v(dout[3])" 1.799152357101897e+00
"v(dout[2])" 1.799152357101897e+00
"v(dout[1])" 1.799152063454955e+00
"v(dout[0])" 1.799152063454952e+00
"v(we)" 1.057307186561992e-01
"v(clk)" 1.057307186561992e-01
"time" 5.612905521840605e-12
"v(addr[5])" 0.000000000000000e+00
"v(addr[4])" 0.000000000000000e+00
"v(addr[3])" 2.020645987862618e-01
"v(addr[2])" 2.020645987862618e-01
"v(addr[1])" 2.020645987862618e-01
"v(addr[0])" 0.000000000000000e+00
"v(din[15])" 0.000000000000000e+00
"v(din[14])" 0.000000000000000e+00
"v(din[13])" 0.000000000000000e+00
"v(din[12])" 0.000000000000000e+00
"v(din[11])" 2.020645987862618e-01
"v(din[10])" 0.000000000000000e+00
"v(din[9])" 0.000000000000000e+00
"v(din[8])" 2.020645987862618e-01
"v(din[7])" 0.000000000000000e+00
"v(din[6])" 0.000000000000000e+00
"v(din[5])" 0.000000000000000e+00
"v(din[4])" 2.020645987862618e-01
"v(din[3])" 0.000000000000000e+00
"v(din[2])" 0.000000000000000e+00
"v(din[1])" 0.000000000000000e+00
"v(din[0])" 2.020645987862618e-01
"v(dout[15])" 1.799151860452714e+00
"v(dout[14])" 1.799152105251048e+00
"v(dout[13])" 1.799152105251049e+00
"v(dout[12])" 1.799151860452715e+00
"v(dout[11])" 1.799152105250251e+00
"v(dout[10])" 1.799152105251048e+00
"v(dout[9])" 1.799152105251048e+00
"v(dout[8])" 1.799151860451921e+00
"v(dout[7])" 1.799151860452716e+00
"v(dout[6])" 1.799151860452715e+00
"v(dout[5])" 1.799151860452714e+00
"v(dout[4])" 1.799152105250252e+00
"v(dout[3])" 1.799152105251048e+00
"v(dout[2])" 1.799152105251048e+00
"v(dout[1])" 1.799151860452717e+00
"v(dout[0])" 1.799151860451917e+00
"v(we)" 2.020645987862618e-01
"v(clk)" 2.020645987862618e-01
"time" 8.188001813368999e-12
"v(addr[5])" 0.000000000000000e+00
"v(addr[4])" 0.000000000000000e+00
"v(addr[3])" 2.947680652812840e-01
"v(addr[2])" 2.947680652812840e-01
"v(addr[1])" 2.947680652812840e-01
"v(addr[0])" 0.000000000000000e+00
"v(din[15])" 0.000000000000000e+00
"v(din[14])" 0.000000000000000e+00
"v(din[13])" 0.000000000000000e+00
"v(din[12])" 0.000000000000000e+00
"v(din[11])" 2.947680652812840e-01
"v(din[10])" 0.000000000000000e+00
"v(din[9])" 0.000000000000000e+00
"v(din[8])" 2.947680652812840e-01
"v(din[7])" 0.000000000000000e+00
"v(din[6])" 0.000000000000000e+00
"v(din[5])" 0.000000000000000e+00
"v(din[4])" 2.947680652812840e-01
"v(din[3])" 0.000000000000000e+00
"v(din[2])" 0.000000000000000e+00
"v(din[1])" 0.000000000000000e+00
"v(din[0])" 2.947680652812840e-01
"v(dout[15])" 1.799151609585837e+00
"v(dout[14])" 1.799151815234448e+00
"v(dout[13])" 1.799151815234449e+00
"v(dout[12])" 1.799151609585839e+00
"v(dout[11])" 1.799151815233182e+00
"v(dout[10])" 1.799151815234448e+00
"v(dout[9])" 1.799151815234448e+00
"v(dout[8])" 1.799151609584576e+00
"v(dout[7])" 1.799151609585839e+00
"v(dout[6])" 1.799151609585839e+00
"v(dout[5])" 1.799151609585838e+00
"v(dout[4])" 1.799151815233183e+00
"v(dout[3])" 1.799151815234448e+00
"v(dout[2])" 1.799151815234448e+00
"v(dout[1])" 1.799151609585840e+00
"v(dout[0])" 1.799151609584573e+00
"v(we)" 2.947680652812840e-01
"v(clk)" 2.947680652812840e-01
"time" 1.179670288816145e-11
"v(addr[5])" 0.000000000000000e+00
"v(addr[4])" 0.000000000000000e+00
"v(addr[3])" 4.246813039738123e-01
"v(addr[2])" 4.246813039738123e-01
"v(addr[1])" 4.246813039738123e-01
"v(addr[0])" 0.000000000000000e+00
"v(din[15])" 0.000000000000000e+00
"v(din[14])" 0.000000000000000e+00
"v(din[13])" 0.000000000000000e+00
"v(din[12])" 0.000000000000000e+00
"v(din[11])" 4.246813039738123e-01
"v(din[10])" 0.000000000000000e+00
"v(din[9])" 0.000000000000000e+00
"v(din[8])" 4.246813039738123e-01
"v(din[7])" 0.000000000000000e+00
"v(din[6])" 0.000000000000000e+00
"v(din[5])" 0.000000000000000e+00
"v(din[4])" 4.246813039738123e-01
"v(din[3])" 0.000000000000000e+00
"v(din[2])" 0.000000000000000e+00
"v(din[1])" 0.000000000000000e+00
"v(din[0])" 4.246813039738123e-01
"v(dout[15])" 1.799151415938928e+00
"v(dout[14])" 1.799151577163894e+00
"v(dout[13])" 1.799151577163895e+00
"v(dout[12])" 1.799151415938929e+00
"v(dout[11])" 1.799151577163404e+00
"v(dout[10])" 1.799151577163894e+00
"v(dout[9])" 1.799151577163894e+00
"v(dout[8])" 1.799151415938441e+00
"v(dout[7])" 1.799151415938929e+00
"v(dout[6])" 1.799151415938929e+00
"v(dout[5])" 1.799151415938928e+00
"v(dout[4])" 1.799151577163405e+00
"v(dout[3])" 1.799151577163895e+00
"v(dout[2])" 1.799151577163894e+00
"v(dout[1])" 1.799151415938931e+00
"v(dout[0])" 1.799151415938438e+00
"v(we)" 4.246813039738123e-01
"v(clk)" 4.246813039738123e-01
"time" 1.660596827552060e-11
"v(addr[5])" 0.000000000000000e+00
"v(addr[4])" 0.000000000000000e+00
"v(addr[3])" 5.978148579187414e-01
"v(addr[2])" 5.978148579187414e-01
"v(addr[1])" 5.978148579187414e-01
"v(addr[0])" 0.000000000000000e+00
"v(din[15])" 0.000000000000000e+00
"v(din[14])" 0.000000000000000e+00
"v(din[13])" 0.000000000000000e+00
"v(din[12])" 0.000000000000000e+00
"v(din[11])" 5.978148579187414e-01
"v(din[10])" 0.000000000000000e+00
"v(din[9])" 0.000000000000000e+00
"v(din[8])" 5.978148579187414e-01
"v(din[7])" 0.000000000000000e+00
"v(din[6])" 0.000000000000000e+00
"v(din[5])" 0.000000000000000e+00
"v(din[4])" 5.978148579187414e-01
"v(din[3])" 0.000000000000000e+00
"v(din[2])" 0.000000000000000e+00
"v(din[1])" 0.000000000000000e+00
"v(din[0])" 5.978148579187414e-01
"v(dout[15])" 1.799151674372128e+00
"v(dout[14])" 1.799151791184561e+00
"v(dout[13])" 1.799151791184562e+00
"v(dout[12])" 1.799151674372129e+00
"v(dout[11])" 1.799151791187065e+00
"v(dout[10])" 1.799151791184562e+00
"v(dout[9])" 1.799151791184562e+00
"v(dout[8])" 1.799151674374635e+00
"v(dout[7])" 1.799151674372130e+00
"v(dout[6])" 1.799151674372129e+00
"v(dout[5])" 1.799151674372129e+00
"v(dout[4])" 1.799151791187065e+00
"v(dout[3])" 1.799151791184562e+00
"v(dout[2])" 1.799151791184562e+00
"v(dout[1])" 1.799151674372130e+00
"v(dout[0])" 1.799151674374632e+00
"v(we)" 5.978148579187414e-01
"v(clk)" 5.978148579187414e-01
"time" 1.953952833419778e-11
"v(addr[5])" 0.000000000000000e+00
"v(addr[4])" 0.000000000000000e+00
"v(addr[3])" 7.034230200311199e-01
"v(addr[2])" 7.034230200311199e-01
"v(addr[1])" 7.034230200311199e-01
"v(addr[0])" 0.000000000000000e+00
"v(din[15])" 0.000000000000000e+00
"v(din[14])" 0.000000000000000e+00
"v(din[13])" 0.000000000000000e+00
"v(din[12])" 0.000000000000000e+00
"v(din[11])" 7.034230200311199e-01
"v(din[10])" 0.000000000000000e+00
"v(din[9])" 0.000000000000000e+00
"v(din[8])" 7.034230200311199e-01
"v(din[7])" 0.000000000000000e+00
"v(din[6])" 0.000000000000000e+00
"v(din[5])" 0.000000000000000e+00
"v(din[4])" 7.034230200311199e-01
"v(din[3])" 0.000000000000000e+00
"v(din[2])" 0.000000000000000e+00
"v(din[1])" 0.000000000000000e+00
"v(din[0])" 7.034230200311199e-01
"v(dout[15])" 1.799152143415709e+00
"v(dout[14])" 1.799152239719588e+00
"v(dout[13])" 1.799152239719588e+00
"v(dout[12])" 1.799152143415710e+00
"v(dout[11])" 1.799152239724143e+00
"v(dout[10])" 1.799152239719588e+00
"v(dout[9])" 1.799152239719588e+00
"v(dout[8])" 1.799152143420268e+00
"v(dout[7])" 1.799152143415711e+00
"v(dout[6])" 1.799152143415710e+00
"v(dout[5])" 1.799152143415709e+00
"v(dout[4])" 1.799152239724143e+00
"v(dout[3])" 1.799152239719588e+00
"v(dout[2])" 1.799152239719588e+00
"v(dout[1])" 1.799152143415711e+00
"v(dout[0])" 1.799152143420265e+00
"v(we)" 7.034230200311199e-01
"v(clk)" 7.034230200311199e-01
"time" 2.159025927347239e-11
"v(addr[5])" 0.000000000000000e+00
"v(addr[4])" 0.000000000000000e+00
"v(addr[3])" 7.772493338450062e-01
"v(addr[2])" 7.772493338450062e-01
"v(addr[1])" 7.772493338450062e-01
"v(addr[0])" 0.000000000000000e+00
"v(din[15])" 0.000000000000000e+00
"v(din[14])" 0.000000000000000e+00
"v(din[13])" 0.000000000000000e+00
"v(din[12])" 0.000000000000000e+00
"v(din[11])" 7.772493338450062e-01
"v(din[10])" 0.000000000000000e+00
"v(din[9])" 0.000000000000000e+00
"v(din[8])" 7.772493338450062e-01
"v(din[7])" 0.000000000000000e+00
"v(din[6])" 0.000000000000000e+00
"v(din[5])" 0.000000000000000e+00
"v(din[4])" 7.772493338450062e-01
"v(din[3])" 0.000000000000000e+00
"v(din[2])" 0.000000000000000e+00
"v(din[1])" 0.000000000000000e+00
"v(din[0])" 7.772493338450062e-01
"v(dout[15])" 1.799152590570150e+00
"v(dout[14])" 1.799152674845317e+00
"v(dout[13])" 1.799152674845317e+00
"v(dout[12])" 1.799152590570151e+00
"v(dout[11])" 1.799152674850859e+00
"v(dout[10])" 1.799152674845317e+00
"v(dout[9])" 1.799152674845318e+00
"v(dout[8])" 1.799152590575695e+00
"v(dout[7])" 1.799152590570152e+00
"v(dout[6])" 1.799152590570151e+00
"v(dout[5])" 1.799152590570150e+00
"v(dout[4])" 1.799152674850859e+00
"v(dout[3])" 1.799152674845317e+00
"v(dout[2])" 1.799152674845318e+00
"v(dout[1])" 1.799152590570152e+00
"v(dout[0])" 1.799152590575692e+00
"v(we)" 7.772493338450062e-01
"v(clk)" 7.772493338450062e-01
"time" 2.470870359950046e-11
"v(addr[5])" 0.000000000000000e+00
"v(addr[4])" 0.000000000000000e+00
"v(addr[3])" 8.895133295820166e-01
"v(addr[2])" 8.895133295820166e-01
"v(addr[1])" 8.895133295820166e-01
"v(addr[0])" 0.000000000000000e+00
"v(din[15])" 0.000000000000000e+00
"v(din[14])" 0.000000000000000e+00
"v(din[13])" 0.000000000000000e+00
"v(din[12])" 0.000000000000000e+00
"v(din[11])" 8.895133295820166e-01
"v(din[10])" 0.000000000000000e+00
"v(din[9])" 0.000000000000000e+00
"v(din[8])" 8.895133295820166e-01
"v(din[7])" 0.000000000000000e+00
"v(din[6])" 0.000000000000000e+00
"v(din[5])" 0.000000000000000e+00
"v(din[4])" 8.895133295820166e-01
"v(din[3])" 0.000000000000000e+00
"v(din[2])" 0.000000000000000e+00
"v(din[1])" 0.000000000000000e+00
"v(din[0])" 8.895133295820166e-01
"v(dout[15])" 1.799153403192619e+00
"v(dout[14])" 1.799153472118389e+00
"v(dout[13])" 1.799153472118390e+00
"v(dout[12])" 1.799153403192620e+00
"v(dout[11])" 1.799153472124906e+00
"v(dout[10])" 1.799153472118390e+00
"v(dout[9])" 1.799153472118391e+00
"v(dout[8])" 1.799153403199137e+00
