HEADER
"PSFversion" "1.00"
"simulator" "spectre"
"version" "20.1.0.298.isr9"
"date" "5:39:12 PM, Thur Nov 17, 2022"
"design" "* SRAM22 generated testbench for sramgen_sram_16x64m2w16_simple"
"analysis type" "tran"
"analysis name" "timeSweep"
"analysis description" "XPS Transient Analysis `timeSweep': time = (0 s -> 80 ns)"
"xVecSorted" "ascending"
"tolerance.relative" 0.00100000
"start" 0.00000
"outputstart" 0.00000
"stop" 8.00000e-08
"step" 1.00000e-12
"istep" 0.00100000
"maxstep" 1.79769e+308
"ic" "all"
"useprevic" "no"
"skipdc" "no"
"reltol" 0.00100000
"temp" 25.0000
"tnom" 25.0000
"tempeffects" "all"
"errpreset" "moderate"
"method" "traponly"
"lteratio" 3.50000
"relref" "sigglobal"
"cmin" 0.00000
"gmin" 1.00000e-12
"rabsshort" 0.00100000
TYPE
"sweep" FLOAT DOUBLE PROP(
"key" "sweep"
)
"Tau" FLOAT DOUBLE PROP(
"units" "N*m"
"key" "node"
"tolerance" 1.00000e-06
)
"Alpha" FLOAT DOUBLE PROP(
"units" "rads/s^2"
"key" "node"
"tolerance" 1.00000e-06
)
"Omega" FLOAT DOUBLE PROP(
"units" "rads/s"
"key" "node"
"tolerance" 1.00000e-06
)
"Theta" FLOAT DOUBLE PROP(
"units" "rads"
"key" "node"
"tolerance" 1.00000e-06
)
"F" FLOAT DOUBLE PROP(
"units" "N"
"key" "node"
"tolerance" 1.00000e-06
)
"Imp" FLOAT DOUBLE PROP(
"units" "m/s^3"
"key" "node"
"tolerance" 1.00000e-06
)
"Acc" FLOAT DOUBLE PROP(
"units" "m/s^2"
"key" "node"
"tolerance" 1.00000e-06
)
"Vel" FLOAT DOUBLE PROP(
"units" "m/s"
"key" "node"
"tolerance" 1.00000e-06
)
"Pos" FLOAT DOUBLE PROP(
"units" "m"
"key" "node"
"tolerance" 1.00000e-06
)
"Phi" FLOAT DOUBLE PROP(
"units" "Wb"
"key" "node"
"tolerance" 1.00000e-09
)
"V" FLOAT DOUBLE PROP(
"units" "V"
"key" "node"
"tolerance" 1.00000e-06
)
"I" FLOAT DOUBLE PROP(
"units" "A"
"key" "branch"
"tolerance" 1.00000e-12
)
"MMF" FLOAT DOUBLE PROP(
"units" "A*turn"
"key" "node"
"tolerance" 1.00000e-12
)
"Wb" FLOAT DOUBLE PROP(
"units" "Wb"
"key" "node"
"tolerance" 1.00000e-09
)
"Temp" FLOAT DOUBLE PROP(
"units" "C"
"key" "node"
"tolerance" 0.000100000
)
"Pwr" FLOAT DOUBLE PROP(
"units" "W"
"key" "node"
"tolerance" 1.00000e-09
)
"U" FLOAT DOUBLE PROP(
"units" ""
"key" "node"
"tolerance" 1.00000e-06
)
"V/Sec" FLOAT DOUBLE PROP(
"units" "V/s"
"key" "node"
"tolerance" 0.000100000
)
"I/Sec" FLOAT DOUBLE PROP(
"units" "A/s"
"key" "node"
"tolerance" 1.00000e-06
)
"1/Sec" FLOAT DOUBLE PROP(
"units" "1/s"
"key" "node"
"tolerance" 0.000100000
)
"HOD" FLOAT DOUBLE PROP(
"units" ""
"key" "node"
"tolerance" 0.0100000
)
"Q" FLOAT DOUBLE PROP(
"units" "coul"
"key" "node"
"tolerance" 1.00000e-14
)
SWEEP
"time" "sweep" PROP(
"sweep_direction" 0
"units" "s"
"plot" 0
"grid" 1
)
TRACE
" 1" GROUP 1
"v(dout[0])" "V"
" 2" GROUP 1
"v(dout[10])" "V"
" 3" GROUP 1
"v(dout[11])" "V"
" 4" GROUP 1
"v(dout[12])" "V"
" 5" GROUP 1
"v(dout[13])" "V"
" 6" GROUP 1
"v(dout[14])" "V"
" 7" GROUP 1
"v(dout[15])" "V"
" 8" GROUP 1
"v(dout[1])" "V"
" 9" GROUP 1
"v(dout[2])" "V"
" 10" GROUP 1
"v(dout[3])" "V"
" 11" GROUP 1
"v(dout[4])" "V"
" 12" GROUP 1
"v(dout[5])" "V"
" 13" GROUP 1
"v(dout[6])" "V"
" 14" GROUP 1
"v(dout[7])" "V"
" 15" GROUP 1
"v(dout[8])" "V"
" 16" GROUP 1
"v(dout[9])" "V"
VALUE
"time" 0.000000000000000e+00
" 1" 1.799999999604975e+00
" 8" 1.799999999604975e+00
" 2" 1.799999999604975e+00
" 3" 1.799999999604975e+00
" 4" 1.799999999604975e+00
" 5" 1.799999999604975e+00
" 6" 1.799999999604975e+00
" 7" 1.799999999604975e+00
" 9" 1.799999999604975e+00
" 10" 1.799999999604975e+00
" 11" 1.799999999604975e+00
" 12" 1.799999999604975e+00
" 13" 1.799999999604975e+00
" 14" 1.799999999604975e+00
" 15" 1.799999999604975e+00
" 16" 1.799999999604975e+00
"time" 1.126400000000000e-08
" 16" 1.799999999604975e+00
" 15" 1.799999999604975e+00
" 14" 1.799999999604975e+00
" 13" 1.799999999604975e+00
" 12" 1.799999999604975e+00
" 11" 1.799999999604975e+00
" 10" 1.799999999604975e+00
" 9" 1.799999999604975e+00
" 7" 1.799999999604975e+00
" 6" 1.799999999604975e+00
" 5" 1.799999999604975e+00
" 4" 1.799999999604975e+00
" 3" 1.799999999604975e+00
" 2" 1.799999999604975e+00
" 8" 1.799999999604975e+00
" 1" 1.799999999604975e+00
"time" 1.152800000000000e-08
" 16" 1.800605560988350e+00
" 15" 1.800605600928751e+00
" 14" 1.800605560988350e+00
" 13" 1.800605560988350e+00
" 12" 1.800605560988350e+00
" 11" 1.800605600928751e+00
" 10" 1.800605560988350e+00
" 9" 1.800605560988350e+00
" 7" 1.800605560988350e+00
" 6" 1.800605560988350e+00
" 5" 1.800605560988350e+00
" 4" 1.800605560988350e+00
" 3" 1.800605600928751e+00
" 2" 1.800605560988350e+00
" 8" 1.800605560988350e+00
" 1" 1.800605600928751e+00
"time" 1.153600000000000e-08
" 16" 1.812859801893328e+00
" 15" 1.812860178840077e+00
" 14" 1.812859801893328e+00
" 13" 1.812859801893328e+00
" 12" 1.812859801893328e+00
" 11" 1.812860178840077e+00
" 10" 1.812859801893328e+00
" 9" 1.812859801893328e+00
" 7" 1.812859801893328e+00
" 6" 1.812859801893328e+00
" 5" 1.812859801893328e+00
" 4" 1.812859801893328e+00
" 3" 1.812860178840077e+00
" 2" 1.812859801893328e+00
" 8" 1.812859801893328e+00
" 1" 1.812860178840077e+00
"time" 1.154400000000000e-08
" 16" 1.823330709070950e+00
" 15" 1.823331222036955e+00
" 14" 1.823330709070950e+00
" 13" 1.823330709070950e+00
" 12" 1.823330709070950e+00
" 11" 1.823331222036955e+00
" 10" 1.823330709070950e+00
" 9" 1.823330709070950e+00
" 7" 1.823330709070950e+00
" 6" 1.823330709070950e+00
" 5" 1.823330709070950e+00
" 4" 1.823330709070950e+00
" 3" 1.823331222036955e+00
" 2" 1.823330709070950e+00
" 8" 1.823330709070950e+00
" 1" 1.823331222036955e+00
"time" 1.155200000000000e-08
" 16" 1.834785659804522e+00
" 15" 1.834786357541288e+00
" 14" 1.834785659804522e+00
" 13" 1.834785659804522e+00
" 12" 1.834785659804522e+00
" 11" 1.834786357541288e+00
" 10" 1.834785659804522e+00
" 9" 1.834785659804522e+00
" 7" 1.834785659804522e+00
" 6" 1.834785659804522e+00
" 5" 1.834785659804522e+00
" 4" 1.834785659804522e+00
" 3" 1.834786357541288e+00
" 2" 1.834785659804522e+00
" 8" 1.834785659804522e+00
" 1" 1.834786357541288e+00
"time" 1.156000000000000e-08
" 16" 1.847868038892633e+00
" 15" 1.847869049442895e+00
" 14" 1.847868038892633e+00
" 13" 1.847868038892633e+00
" 12" 1.847868038892633e+00
" 11" 1.847869049442895e+00
" 10" 1.847868038892633e+00
" 9" 1.847868038892633e+00
" 7" 1.847868038892633e+00
" 6" 1.847868038892633e+00
" 5" 1.847868038892633e+00
" 4" 1.847868038892633e+00
" 3" 1.847869049442895e+00
" 2" 1.847868038892633e+00
" 8" 1.847868038892633e+00
" 1" 1.847869049442895e+00
"time" 1.156400000000000e-08
" 16" 1.855577756990233e+00
" 15" 1.855578787097572e+00
" 14" 1.855577756990233e+00
" 13" 1.855577756990233e+00
" 12" 1.855577756990233e+00
" 11" 1.855578787097572e+00
" 10" 1.855577756990233e+00
" 9" 1.855577756990233e+00
" 7" 1.855577756990233e+00
" 6" 1.855577756990233e+00
" 5" 1.855577756990233e+00
" 4" 1.855577756990233e+00
" 3" 1.855578787097572e+00
" 2" 1.855577756990233e+00
" 8" 1.855577756990233e+00
" 1" 1.855578787097572e+00
"time" 1.156800000000000e-08
" 16" 1.865788162954869e+00
" 15" 1.865788911225032e+00
" 14" 1.865788162954869e+00
" 13" 1.865788162954869e+00
" 12" 1.865788162954869e+00
" 11" 1.865788911225032e+00
" 10" 1.865788162954869e+00
" 9" 1.865788162954869e+00
" 7" 1.865788162954869e+00
" 6" 1.865788162954869e+00
" 5" 1.865788162954869e+00
" 4" 1.865788162954869e+00
" 3" 1.865788911225032e+00
" 2" 1.865788162954869e+00
" 8" 1.865788162954869e+00
" 1" 1.865788911225032e+00
"time" 1.157200000000000e-08
" 16" 1.872494096408829e+00
" 15" 1.872493877858681e+00
" 14" 1.872494096408829e+00
" 13" 1.872494096408829e+00
" 12" 1.872494096408829e+00
" 11" 1.872493877858681e+00
" 10" 1.872494096408829e+00
" 9" 1.872494096408829e+00
" 7" 1.872494096408829e+00
" 6" 1.872494096408829e+00
" 5" 1.872494096408829e+00
" 4" 1.872494096408829e+00
" 3" 1.872493877858681e+00
" 2" 1.872494096408829e+00
" 8" 1.872494096408829e+00
" 1" 1.872493877858681e+00
"time" 1.157600000000000e-08
" 16" 1.874030636352920e+00
" 15" 1.874028313761722e+00
" 14" 1.874030636352920e+00
" 13" 1.874030636352920e+00
" 12" 1.874030636352920e+00
" 11" 1.874028313761722e+00
" 10" 1.874030636352920e+00
" 9" 1.874030636352920e+00
" 7" 1.874030636352920e+00
" 6" 1.874030636352920e+00
" 5" 1.874030636352920e+00
" 4" 1.874030636352920e+00
" 3" 1.874028313761722e+00
" 2" 1.874030636352920e+00
" 8" 1.874030636352920e+00
" 1" 1.874028313761722e+00
"time" 1.157800000000000e-08
" 16" 1.867056856369732e+00
" 15" 1.867053443127183e+00
" 14" 1.867056856369732e+00
" 13" 1.867056856369732e+00
" 12" 1.867056856369732e+00
" 11" 1.867053443127183e+00
" 10" 1.867056856369732e+00
" 9" 1.867056856369732e+00
" 7" 1.867056856369732e+00
" 6" 1.867056856369732e+00
" 5" 1.867056856369732e+00
" 4" 1.867056856369732e+00
" 3" 1.867053443127183e+00
" 2" 1.867056856369732e+00
" 8" 1.867056856369732e+00
" 1" 1.867053443127183e+00
"time" 1.158000000000000e-08
" 16" 1.855977035775621e+00
" 15" 1.855972222319905e+00
" 14" 1.855977035775621e+00
" 13" 1.855977035775621e+00
" 12" 1.855977035775621e+00
" 11" 1.855972222319905e+00
" 10" 1.855977035775621e+00
" 9" 1.855977035775621e+00
" 7" 1.855977035775621e+00
" 6" 1.855977035775621e+00
" 5" 1.855977035775621e+00
" 4" 1.855977035775621e+00
" 3" 1.855972222319905e+00
" 2" 1.855977035775621e+00
" 8" 1.855977035775621e+00
" 1" 1.855972222319905e+00
"time" 1.158400000000000e-08
" 16" 1.815904051356051e+00
" 15" 1.815895167126723e+00
" 14" 1.815904051356051e+00
" 13" 1.815904051356051e+00
" 12" 1.815904051356051e+00
" 11" 1.815895167126723e+00
" 10" 1.815904051356051e+00
" 9" 1.815904051356051e+00
" 7" 1.815904051356051e+00
" 6" 1.815904051356051e+00
" 5" 1.815904051356051e+00
" 4" 1.815904051356051e+00
" 3" 1.815895167126723e+00
" 2" 1.815904051356051e+00
" 8" 1.815904051356051e+00
" 1" 1.815895167126723e+00
"time" 1.158800000000000e-08
" 16" 1.743683328706791e+00
" 15" 1.743669617650385e+00
" 14" 1.743683328706791e+00
" 13" 1.743683328706791e+00
" 12" 1.743683328706791e+00
" 11" 1.743669617650385e+00
" 10" 1.743683328706791e+00
" 9" 1.743683328706791e+00
" 7" 1.743683328706791e+00
" 6" 1.743683328706791e+00
" 5" 1.743683328706791e+00
" 4" 1.743683328706791e+00
" 3" 1.743669617650385e+00
" 2" 1.743683328706791e+00
" 8" 1.743683328706791e+00
" 1" 1.743669617650385e+00
"time" 1.159200000000000e-08
" 16" 1.614455295226920e+00
" 15" 1.614434324967312e+00
" 14" 1.614455295226920e+00
" 13" 1.614455295226920e+00
" 12" 1.614455295226920e+00
" 11" 1.614434324967312e+00
" 10" 1.614455295226920e+00
" 9" 1.614455295226920e+00
" 7" 1.614455295226920e+00
" 6" 1.614455295226920e+00
" 5" 1.614455295226920e+00
" 4" 1.614455295226920e+00
" 3" 1.614434324967312e+00
" 2" 1.614455295226920e+00
" 8" 1.614455295226920e+00
" 1" 1.614434324967312e+00
"time" 1.159400000000000e-08
" 16" 1.528994349289097e+00
" 15" 1.528970440089172e+00
" 14" 1.528994349289097e+00
" 13" 1.528994349289097e+00
" 12" 1.528994349289097e+00
" 11" 1.528970440089172e+00
" 10" 1.528994349289097e+00
" 9" 1.528994349289097e+00
" 7" 1.528994349289097e+00
" 6" 1.528994349289097e+00
" 5" 1.528994349289097e+00
" 4" 1.528994349289097e+00
" 3" 1.528970440089172e+00
" 2" 1.528994349289097e+00
" 8" 1.528994349289097e+00
" 1" 1.528970440089172e+00
"time" 1.159500000000000e-08
" 16" 1.482346217596828e+00
" 15" 1.482320788635825e+00
" 14" 1.482346217596828e+00
" 13" 1.482346217596828e+00
" 12" 1.482346217596828e+00
" 11" 1.482320788635825e+00
" 10" 1.482346217596828e+00
" 9" 1.482346217596828e+00
" 7" 1.482346217596828e+00
" 6" 1.482346217596828e+00
" 5" 1.482346217596828e+00
" 4" 1.482346217596828e+00
" 3" 1.482320788635825e+00
" 2" 1.482346217596828e+00
" 8" 1.482346217596828e+00
" 1" 1.482320788635825e+00
"time" 1.159600000000000e-08
" 16" 1.430308410102386e+00
" 15" 1.430281673166883e+00
" 14" 1.430308410102386e+00
" 13" 1.430308410102386e+00
" 12" 1.430308410102386e+00
" 11" 1.430281673166883e+00
" 10" 1.430308410102386e+00
" 9" 1.430308410102386e+00
" 7" 1.430308410102386e+00
" 6" 1.430308410102386e+00
" 5" 1.430308410102386e+00
" 4" 1.430308410102386e+00
" 3" 1.430281673166883e+00
" 2" 1.430308410102386e+00
" 8" 1.430308410102386e+00
" 1" 1.430281673166883e+00
"time" 1.159700000000000e-08
" 16" 1.378205927603886e+00
" 15" 1.378177816596178e+00
" 14" 1.378205927603886e+00
" 13" 1.378205927603886e+00
" 12" 1.378205927603886e+00
" 11" 1.378177816596178e+00
" 10" 1.378205927603886e+00
" 9" 1.378205927603886e+00
" 7" 1.378205927603886e+00
" 6" 1.378205927603886e+00
" 5" 1.378205927603886e+00
" 4" 1.378205927603886e+00
" 3" 1.378177816596178e+00
" 2" 1.378205927603886e+00
" 8" 1.378205927603886e+00
" 1" 1.378177816596178e+00
"time" 1.159800000000000e-08
" 16" 1.320647466651823e+00
" 15" 1.320618027400992e+00
" 14" 1.320647466651823e+00
" 13" 1.320647466651823e+00
" 12" 1.320647466651823e+00
" 11" 1.320618027400992e+00
" 10" 1.320647466651823e+00
" 9" 1.320647466651823e+00
" 7" 1.320647466651823e+00
" 6" 1.320647466651823e+00
" 5" 1.320647466651823e+00
" 4" 1.320647466651823e+00
" 3" 1.320618027400992e+00
" 2" 1.320647466651823e+00
" 8" 1.320647466651823e+00
" 1" 1.320618027400992e+00
"time" 1.159900000000000e-08
" 16" 1.263492873595260e+00
" 15" 1.263462291042163e+00
" 14" 1.263492873595260e+00
" 13" 1.263492873595260e+00
" 12" 1.263492873595260e+00
" 11" 1.263462291042163e+00
" 10" 1.263492873595260e+00
" 9" 1.263492873595260e+00
" 7" 1.263492873595260e+00
" 6" 1.263492873595260e+00
" 5" 1.263492873595260e+00
" 4" 1.263492873595260e+00
" 3" 1.263462291042163e+00
" 2" 1.263492873595260e+00
" 8" 1.263492873595260e+00
" 1" 1.263462291042163e+00
"time" 1.160000000000000e-08
" 16" 1.200994083112127e+00
" 15" 1.200962118047712e+00
" 14" 1.200994083112127e+00
" 13" 1.200994083112127e+00
" 12" 1.200994083112127e+00
" 11" 1.200962118047712e+00
" 10" 1.200994083112127e+00
" 9" 1.200994083112127e+00
" 7" 1.200994083112127e+00
" 6" 1.200994083112127e+00
" 5" 1.200994083112127e+00
" 4" 1.200994083112127e+00
" 3" 1.200962118047712e+00
" 2" 1.200994083112127e+00
" 8" 1.200994083112127e+00
" 1" 1.200962118047712e+00
"time" 1.160100000000000e-08
" 16" 1.139445066914618e+00
" 15" 1.139412275673441e+00
" 14" 1.139445066914618e+00
" 13" 1.139445066914618e+00
" 12" 1.139445066914618e+00
" 11" 1.139412275673441e+00
" 10" 1.139445066914618e+00
" 9" 1.139445066914618e+00
" 7" 1.139445066914618e+00
" 6" 1.139445066914618e+00
" 5" 1.139445066914618e+00
" 4" 1.139445066914618e+00
" 3" 1.139412275673441e+00
" 2" 1.139445066914618e+00
" 8" 1.139445066914618e+00
" 1" 1.139412275673441e+00
"time" 1.160200000000000e-08
" 16" 1.072781097610201e+00
" 15" 1.072747341406586e+00
" 14" 1.072781097610201e+00
" 13" 1.072781097610201e+00
" 12" 1.072781097610201e+00
" 11" 1.072747341406586e+00
" 10" 1.072781097610201e+00
" 9" 1.072781097610201e+00
" 7" 1.072781097610201e+00
" 6" 1.072781097610201e+00
" 5" 1.072781097610201e+00
" 4" 1.072781097610201e+00
" 3" 1.072747341406586e+00
" 2" 1.072781097610201e+00
" 8" 1.072781097610201e+00
" 1" 1.072747341406586e+00
"time" 1.160300000000000e-08
" 16" 1.007554097362850e+00
" 15" 1.007519539341689e+00
" 14" 1.007554097362850e+00
" 13" 1.007554097362850e+00
" 12" 1.007554097362850e+00
" 11" 1.007519539341689e+00
" 10" 1.007554097362850e+00
" 9" 1.007554097362850e+00
" 7" 1.007554097362850e+00
" 6" 1.007554097362850e+00
" 5" 1.007554097362850e+00
" 4" 1.007554097362850e+00
" 3" 1.007519539341689e+00
" 2" 1.007554097362850e+00
" 8" 1.007554097362850e+00
" 1" 1.007519539341689e+00
"time" 1.160400000000000e-08
" 16" 9.371683847034344e-01
" 15" 9.371331680349124e-01
" 14" 9.371683847034344e-01
" 13" 9.371683847034344e-01
" 12" 9.371683847034344e-01
" 11" 9.371331680349124e-01
" 10" 9.371683847034344e-01
" 9" 9.371683847034344e-01
" 7" 9.371683847034344e-01
" 6" 9.371683847034344e-01
" 5" 9.371683847034344e-01
" 4" 9.371683847034344e-01
" 3" 9.371331680349124e-01
" 2" 9.371683847034344e-01
" 8" 9.371683847034344e-01
" 1" 9.371331680349124e-01
"time" 1.160500000000000e-08
" 16" 8.688200565722063e-01
" 15" 8.687841124995579e-01
" 14" 8.688200565722063e-01
" 13" 8.688200565722063e-01
" 12" 8.688200565722063e-01
" 11" 8.687841124995579e-01
" 10" 8.688200565722063e-01
" 9" 8.688200565722063e-01
" 7" 8.688200565722063e-01
" 6" 8.688200565722063e-01
" 5" 8.688200565722063e-01
" 4" 8.688200565722063e-01
" 3" 8.687841124995579e-01
" 2" 8.688200565722063e-01
" 8" 8.688200565722063e-01
" 1" 8.687841124995579e-01
"time" 1.160600000000000e-08
" 16" 7.955508415635466e-01
" 15" 7.955140846276997e-01
" 14" 7.955508415635466e-01
" 13" 7.955508415635466e-01
" 12" 7.955508415635466e-01
" 11" 7.955140846276997e-01
" 10" 7.955508415635466e-01
" 9" 7.955508415635466e-01
" 7" 7.955508415635466e-01
" 6" 7.955508415635466e-01
" 5" 7.955508415635466e-01
" 4" 7.955508415635466e-01
" 3" 7.955140846276997e-01
" 2" 7.955508415635466e-01
" 8" 7.955508415635466e-01
" 1" 7.955140846276997e-01
"time" 1.160700000000000e-08
" 16" 7.247452594331546e-01
" 15" 7.247082034878801e-01
" 14" 7.247452594331546e-01
" 13" 7.247452594331546e-01
" 12" 7.247452594331546e-01
" 11" 7.247082034878801e-01
" 10" 7.247452594331546e-01
" 9" 7.247452594331546e-01
" 7" 7.247452594331546e-01
" 6" 7.247452594331546e-01
" 5" 7.247452594331546e-01
" 4" 7.247452594331546e-01
" 3" 7.247082034878801e-01
" 2" 7.247452594331546e-01
" 8" 7.247452594331546e-01
" 1" 7.247082034878801e-01
"time" 1.160800000000000e-08
" 16" 6.499584841094409e-01
" 15" 6.499212173539547e-01
" 14" 6.499584841094409e-01
" 13" 6.499584841094409e-01
" 12" 6.499584841094409e-01
" 11" 6.499212173539547e-01
" 10" 6.499584841094409e-01
" 9" 6.499584841094409e-01
" 7" 6.499584841094409e-01
" 6" 6.499584841094409e-01
" 5" 6.499584841094409e-01
" 4" 6.499584841094409e-01
" 3" 6.499212173539547e-01
" 2" 6.499584841094409e-01
" 8" 6.499584841094409e-01
" 1" 6.499212173539547e-01
"time" 1.160900000000000e-08
" 16" 5.780405254161198e-01
" 15" 5.780031700632379e-01
" 14" 5.780405254161198e-01
" 13" 5.780405254161198e-01
" 12" 5.780405254161198e-01
" 11" 5.780031700632379e-01
" 10" 5.780405254161198e-01
" 9" 5.780405254161198e-01
" 7" 5.780405254161198e-01
" 6" 5.780405254161198e-01
" 5" 5.780405254161198e-01
" 4" 5.780405254161198e-01
" 3" 5.780031700632379e-01
" 2" 5.780405254161198e-01
" 8" 5.780405254161198e-01
" 1" 5.780031700632379e-01
"time" 1.161000000000000e-08
" 16" 5.034854125072520e-01
" 15" 5.034482421484122e-01
" 14" 5.034854125072520e-01
" 13" 5.034854125072520e-01
" 12" 5.034854125072520e-01
" 11" 5.034482421484122e-01
" 10" 5.034854125072520e-01
" 9" 5.034854125072520e-01
" 7" 5.034854125072520e-01
" 6" 5.034854125072520e-01
" 5" 5.034854125072520e-01
" 4" 5.034854125072520e-01
" 3" 5.034482421484122e-01
" 2" 5.034854125072520e-01
" 8" 5.034854125072520e-01
" 1" 5.034482421484122e-01
"time" 1.161100000000000e-08
" 16" 4.331082198141157e-01
" 15" 4.330715957944556e-01
" 14" 4.331082198141157e-01
" 13" 4.331082198141157e-01
" 12" 4.331082198141157e-01
" 11" 4.330715957944556e-01
" 10" 4.331082198141157e-01
" 9" 4.331082198141157e-01
" 7" 4.331082198141157e-01
" 6" 4.331082198141157e-01
" 5" 4.331082198141157e-01
" 4" 4.331082198141157e-01
" 3" 4.330715957944556e-01
" 2" 4.331082198141157e-01
" 8" 4.331082198141157e-01
" 1" 4.330715957944556e-01
"time" 1.161200000000000e-08
" 16" 3.640299431951858e-01
" 15" 3.639964325605257e-01
" 14" 3.640299431951858e-01
" 13" 3.640299431951858e-01
" 12" 3.640299431951858e-01
" 11" 3.639964325605257e-01
" 10" 3.640299431951858e-01
" 9" 3.640299431951858e-01
" 7" 3.640299431951858e-01
" 6" 3.640299431951858e-01
" 5" 3.640299431951858e-01
" 4" 3.640299431951858e-01
" 3" 3.639964325605257e-01
" 2" 3.640299431951858e-01
" 8" 3.640299431951858e-01
" 1" 3.639964325605257e-01
"time" 1.161300000000000e-08
" 16" 3.024355849942985e-01
" 15" 3.024034309757934e-01
" 14" 3.024355849942985e-01
" 13" 3.024355849942985e-01
" 12" 3.024355849942985e-01
" 11" 3.024034309757934e-01
" 10" 3.024355849942985e-01
" 9" 3.024355849942985e-01
" 7" 3.024355849942985e-01
" 6" 3.024355849942985e-01
" 5" 3.024355849942985e-01
" 4" 3.024355849942985e-01
" 3" 3.024034309757934e-01
" 2" 3.024355849942985e-01
" 8" 3.024355849942985e-01
" 1" 3.024034309757934e-01
"time" 1.161400000000000e-08
