Title: // lib_include_tb
Date: 11:12:19 PM, Tue Sep 19, 2023
Plotname: Transient Analysis `analysis0': time = (0 s -> 2 ns)
Flags: real
No. Variables:        4
No. Points:      104
Variables:	0	time	s
		1	vdd	V plot=0 grid=0
		2	xinst0_n	V plot=0 grid=0
		3	rawinst1:p	A plot=0 grid=0
Values:
 0	0	1.8	1.2
	-0.0012
 1	2e-12	1.8	1.2
	-0.0012
 2	6e-12	1.8	1.2
	-0.0012
 3	1.4e-11	1.8	1.2
	-0.0012
 4	3e-11	1.8	1.2
	-0.0012
 5	5e-11	1.8	1.2
	-0.0012
 6	7e-11	1.8	1.2
	-0.0012
 7	9e-11	1.8	1.2
	-0.0012
 8	1.1e-10	1.8	1.2
	-0.0012
 9	1.3e-10	1.8	1.2
	-0.0012
 10	1.5e-10	1.8	1.2
	-0.0012
 11	1.7e-10	1.8	1.2
	-0.0012
 12	1.9e-10	1.8	1.2
	-0.0012
 13	2.1e-10	1.8	1.2
	-0.0012
 14	2.3e-10	1.8	1.2
	-0.0012
 15	2.5e-10	1.8	1.2
	-0.0012
 16	2.7e-10	1.8	1.2
	-0.0012
 17	2.9e-10	1.8	1.2
	-0.0012
 18	3.1e-10	1.8	1.2
	-0.0012
 19	3.3e-10	1.8	1.2
	-0.0012
 20	3.5e-10	1.8	1.2
	-0.0012
 21	3.7e-10	1.8	1.2
	-0.0012
 22	3.9e-10	1.8	1.2
	-0.0012
 23	4.1e-10	1.8	1.2
	-0.0012
 24	4.3e-10	1.8	1.2
	-0.0012
 25	4.5e-10	1.8	1.2
	-0.0012
 26	4.7e-10	1.8	1.2
	-0.0012
 27	4.9e-10	1.8	1.2
	-0.0012
 28	5.1e-10	1.8	1.2
	-0.0012
 29	5.3e-10	1.8	1.2
	-0.0012
 30	5.5e-10	1.8	1.2
	-0.0012
 31	5.7e-10	1.8	1.2
	-0.0012
 32	5.9e-10	1.8	1.2
	-0.0012
 33	6.1e-10	1.8	1.2
	-0.0012
 34	6.3e-10	1.8	1.2
	-0.0012
 35	6.5e-10	1.8	1.2
	-0.0012
 36	6.7e-10	1.8	1.2
	-0.0012
 37	6.9e-10	1.8	1.2
	-0.0012
 38	7.1e-10	1.8	1.2
	-0.0012
 39	7.3e-10	1.8	1.2
	-0.0012
 40	7.5e-10	1.8	1.2
	-0.0012
 41	7.7e-10	1.8	1.2
	-0.0012
 42	7.9e-10	1.8	1.2
	-0.0012
 43	8.10000000000001e-10	1.8	1.2
	-0.0012
 44	8.30000000000001e-10	1.8	1.2
	-0.0012
 45	8.50000000000001e-10	1.8	1.2
	-0.0012
 46	8.70000000000001e-10	1.8	1.2
	-0.0012
 47	8.90000000000001e-10	1.8	1.2
	-0.0012
 48	9.10000000000001e-10	1.8	1.2
	-0.0012
 49	9.30000000000001e-10	1.8	1.2
	-0.0012
 50	9.50000000000001e-10	1.8	1.2
	-0.0012
 51	9.70000000000001e-10	1.8	1.2
	-0.0012
 52	9.90000000000001e-10	1.8	1.2
	-0.0012
 53	1.01e-09	1.8	1.2
	-0.0012
 54	1.03e-09	1.8	1.2
	-0.0012
 55	1.05e-09	1.8	1.2
	-0.0012
 56	1.07e-09	1.8	1.2
	-0.0012
 57	1.09e-09	1.8	1.2
	-0.0012
 58	1.11e-09	1.8	1.2
	-0.0012
 59	1.13e-09	1.8	1.2
	-0.0012
 60	1.15e-09	1.8	1.2
	-0.0012
 61	1.17e-09	1.8	1.2
	-0.0012
 62	1.19e-09	1.8	1.2
	-0.0012
 63	1.21e-09	1.8	1.2
	-0.0012
 64	1.23e-09	1.8	1.2
	-0.0012
 65	1.25e-09	1.8	1.2
	-0.0012
 66	1.27e-09	1.8	1.2
	-0.0012
 67	1.29e-09	1.8	1.2
	-0.0012
 68	1.31e-09	1.8	1.2
	-0.0012
 69	1.33e-09	1.8	1.2
	-0.0012
 70	1.35e-09	1.8	1.2
	-0.0012
 71	1.37e-09	1.8	1.2
	-0.0012
 72	1.39e-09	1.8	1.2
	-0.0012
 73	1.41e-09	1.8	1.2
	-0.0012
 74	1.43e-09	1.8	1.2
	-0.0012
 75	1.45e-09	1.8	1.2
	-0.0012
 76	1.47e-09	1.8	1.2
	-0.0012
 77	1.49e-09	1.8	1.2
	-0.0012
 78	1.51e-09	1.8	1.2
	-0.0012
 79	1.53e-09	1.8	1.2
	-0.0012
 80	1.55e-09	1.8	1.2
	-0.0012
 81	1.57e-09	1.8	1.2
	-0.0012
 82	1.59e-09	1.8	1.2
	-0.0012
 83	1.61e-09	1.8	1.2
	-0.0012
 84	1.63e-09	1.8	1.2
	-0.0012
 85	1.65e-09	1.8	1.2
	-0.0012
 86	1.67e-09	1.8	1.2
	-0.0012
 87	1.69e-09	1.8	1.2
	-0.0012
 88	1.71e-09	1.8	1.2
	-0.0012
 89	1.73e-09	1.8	1.2
	-0.0012
 90	1.75e-09	1.8	1.2
	-0.0012
 91	1.77e-09	1.8	1.2
	-0.0012
 92	1.79e-09	1.8	1.2
	-0.0012
 93	1.81e-09	1.8	1.2
	-0.0012
 94	1.83e-09	1.8	1.2
	-0.0012
 95	1.85e-09	1.8	1.2
	-0.0012
 96	1.87e-09	1.8	1.2
	-0.0012
 97	1.89e-09	1.8	1.2
	-0.0012
 98	1.91e-09	1.8	1.2
	-0.0012
 99	1.93e-09	1.8	1.2
	-0.0012
 100	1.95e-09	1.8	1.2
	-0.0012
 101	1.97e-09	1.8	1.2
	-0.0012
 102	1.985e-09	1.8	1.2
	-0.0012
 103	2e-09	1.8	1.2
	-0.0012
