Title: // vdivider_tb
Date: 4:06:13 PM, Tue Aug 15, 2023
Plotname: Transient Analysis `atran': time = (0 s -> 1 ns)
Flags: real
No. Variables:        5
No. Points:       55
Variables:	0	time	s
		1	rawinst0:in	A plot=0 grid=0
		2	inst0:pwr_vdd	A plot=0 grid=0
		3	inst0.out	V plot=0 grid=0
		4	inst0.pwr_vdd	V plot=0 grid=0
Values:
 0	0	0.045	0.045
	0.9	1.8
 1	1e-12	0.045	0.045
	0.9	1.8
 2	3e-12	0.045	0.045
	0.9	1.8
 3	7e-12	0.045	0.045
	0.9	1.8
 4	1.5e-11	0.045	0.045
	0.9	1.8
 5	3.1e-11	0.045	0.045
	0.9	1.8
 6	5.1e-11	0.045	0.045
	0.9	1.8
 7	7.1e-11	0.045	0.045
	0.9	1.8
 8	9.1e-11	0.045	0.045
	0.9	1.8
 9	1.11e-10	0.045	0.045
	0.9	1.8
 10	1.31e-10	0.045	0.045
	0.9	1.8
 11	1.51e-10	0.045	0.045
	0.9	1.8
 12	1.71e-10	0.045	0.045
	0.9	1.8
 13	1.91e-10	0.045	0.045
	0.9	1.8
 14	2.11e-10	0.045	0.045
	0.9	1.8
 15	2.31e-10	0.045	0.045
	0.9	1.8
 16	2.51e-10	0.045	0.045
	0.9	1.8
 17	2.71e-10	0.045	0.045
	0.9	1.8
 18	2.91e-10	0.045	0.045
	0.9	1.8
 19	3.11e-10	0.045	0.045
	0.9	1.8
 20	3.31e-10	0.045	0.045
	0.9	1.8
 21	3.51e-10	0.045	0.045
	0.9	1.8
 22	3.71e-10	0.045	0.045
	0.9	1.8
 23	3.91e-10	0.045	0.045
	0.9	1.8
 24	4.11e-10	0.045	0.045
	0.9	1.8
 25	4.31e-10	0.045	0.045
	0.9	1.8
 26	4.51e-10	0.045	0.045
	0.9	1.8
 27	4.71e-10	0.045	0.045
	0.9	1.8
 28	4.91e-10	0.045	0.045
	0.9	1.8
 29	5.11e-10	0.045	0.045
	0.9	1.8
 30	5.31e-10	0.045	0.045
	0.9	1.8
 31	5.51e-10	0.045	0.045
	0.9	1.8
 32	5.71e-10	0.045	0.045
	0.9	1.8
 33	5.91e-10	0.045	0.045
	0.9	1.8
 34	6.11e-10	0.045	0.045
	0.9	1.8
 35	6.31e-10	0.045	0.045
	0.9	1.8
 36	6.51e-10	0.045	0.045
	0.9	1.8
 37	6.71e-10	0.045	0.045
	0.9	1.8
 38	6.91e-10	0.045	0.045
	0.9	1.8
 39	7.11e-10	0.045	0.045
	0.9	1.8
 40	7.31e-10	0.045	0.045
	0.9	1.8
 41	7.51e-10	0.045	0.045
	0.9	1.8
 42	7.71e-10	0.045	0.045
	0.9	1.8
 43	7.91e-10	0.045	0.045
	0.9	1.8
 44	8.11000000000001e-10	0.045	0.045
	0.9	1.8
 45	8.31000000000001e-10	0.045	0.045
	0.9	1.8
 46	8.51000000000001e-10	0.045	0.045
	0.9	1.8
 47	8.71000000000001e-10	0.045	0.045
	0.9	1.8
 48	8.91000000000001e-10	0.045	0.045
	0.9	1.8
 49	9.11000000000001e-10	0.045	0.045
	0.9	1.8
 50	9.31000000000001e-10	0.045	0.045
	0.9	1.8
 51	9.51000000000001e-10	0.045	0.045
	0.9	1.8
 52	9.71000000000001e-10	0.045	0.045
	0.9	1.8
 53	9.855e-10	0.045	0.045
	0.9	1.8
 54	1e-09	0.045	0.045
	0.9	1.8
Plotname: AC Analysis `aac': freq = (1 Hz -> 1 kHz)
Flags: complex
No. Variables:        5
No. Points:      102
Variables:	0	freq	Hz
		1	rawinst0:in	A plot=0 grid=0
		2	inst0:pwr_vdd	A plot=0 grid=0
		3	inst0.out	V plot=0 grid=0
		4	inst0.pwr_vdd	V plot=0 grid=0
Values:
 0	1,0
	0,-0
	0,-0
	0,0
	0,-0
 1	10.8910891089109,0
	0,-0
	0,-0
	0,0
	0,-0
 2	20.7821782178218,0
	0,-0
	0,-0
	0,0
	0,-0
 3	30.6732673267327,0
	0,-0
	0,-0
	0,0
	0,-0
 4	40.5643564356436,0
	0,-0
	0,-0
	0,0
	0,-0
 5	50.4554455445545,0
	0,-0
	0,-0
	0,0
	0,-0
 6	60.3465346534653,0
	0,-0
	0,-0
	0,0
	0,-0
 7	70.2376237623762,0
	0,-0
	0,-0
	0,0
	0,-0
 8	80.1287128712871,0
	0,-0
	0,-0
	0,0
	0,-0
 9	90.019801980198,0
	0,-0
	0,-0
	0,0
	0,-0
 10	99.9108910891089,0
	0,-0
	0,-0
	0,0
	0,-0
 11	109.80198019802,0
	0,-0
	0,-0
	0,0
	0,-0
 12	119.693069306931,0
	0,-0
	0,-0
	0,0
	0,-0
 13	129.584158415842,0
	0,-0
	0,-0
	0,0
	0,-0
 14	139.475247524752,0
	0,-0
	0,-0
	0,0
	0,-0
 15	149.366336633663,0
	0,-0
	0,-0
	0,0
	0,-0
 16	159.257425742574,0
	0,-0
	0,-0
	0,0
	0,-0
 17	169.148514851485,0
	0,-0
	0,-0
	0,0
	0,-0
 18	179.039603960396,0
	0,-0
	0,-0
	0,0
	0,-0
 19	188.930693069307,0
	0,-0
	0,-0
	0,0
	0,-0
 20	198.821782178218,0
	0,-0
	0,-0
	0,0
	0,-0
 21	208.712871287129,0
	0,-0
	0,-0
	0,0
	0,-0
 22	218.60396039604,0
	0,-0
	0,-0
	0,0
	0,-0
 23	228.495049504951,0
	0,-0
	0,-0
	0,0
	0,-0
 24	238.386138613862,0
	0,-0
	0,-0
	0,0
	0,-0
 25	248.277227722772,0
	0,-0
	0,-0
	0,0
	0,-0
 26	258.168316831683,0
	0,-0
	0,-0
	0,0
	0,-0
 27	268.059405940594,0
	0,-0
	0,-0
	0,0
	0,-0
 28	277.950495049505,0
	0,-0
	0,-0
	0,0
	0,-0
 29	287.841584158416,0
	0,-0
	0,-0
	0,0
	0,-0
 30	297.732673267327,0
	0,-0
	0,-0
	0,0
	0,-0
 31	307.623762376238,0
	0,-0
	0,-0
	0,0
	0,-0
 32	317.514851485149,0
	0,-0
	0,-0
	0,0
	0,-0
 33	327.405940594059,0
	0,-0
	0,-0
	0,0
	0,-0
 34	337.29702970297,0
	0,-0
	0,-0
	0,0
	0,-0
 35	347.188118811881,0
	0,-0
	0,-0
	0,0
	0,-0
 36	357.079207920792,0
	0,-0
	0,-0
	0,0
	0,-0
 37	366.970297029703,0
	0,-0
	0,-0
	0,0
	0,-0
 38	376.861386138614,0
	0,-0
	0,-0
	0,0
	0,-0
 39	386.752475247525,0
	0,-0
	0,-0
	0,0
	0,-0
 40	396.643564356436,0
	0,-0
	0,-0
	0,0
	0,-0
 41	406.534653465346,0
	0,-0
	0,-0
	0,0
	0,-0
 42	416.425742574257,0
	0,-0
	0,-0
	0,0
	0,-0
 43	426.316831683168,0
	0,-0
	0,-0
	0,0
	0,-0
 44	436.207920792079,0
	0,-0
	0,-0
	0,0
	0,-0
 45	446.09900990099,0
	0,-0
	0,-0
	0,0
	0,-0
 46	455.990099009901,0
	0,-0
	0,-0
	0,0
	0,-0
 47	465.881188118812,0
	0,-0
	0,-0
	0,0
	0,-0
 48	475.772277227723,0
	0,-0
	0,-0
	0,0
	0,-0
 49	485.663366336633,0
	0,-0
	0,-0
	0,0
	0,-0
 50	495.554455445544,0
	0,-0
	0,-0
	0,0
	0,-0
 51	505.445544554455,0
	0,-0
	0,-0
	0,0
	0,-0
 52	515.336633663366,0
	0,-0
	0,-0
	0,0
	0,-0
 53	525.227722772277,0
	0,-0
	0,-0
	0,0
	0,-0
 54	535.118811881188,0
	0,-0
	0,-0
	0,0
	0,-0
 55	545.009900990099,0
	0,-0
	0,-0
	0,0
	0,-0
 56	554.90099009901,0
	0,-0
	0,-0
	0,0
	0,-0
 57	564.792079207921,0
	0,-0
	0,-0
	0,0
	0,-0
 58	574.683168316832,0
	0,-0
	0,-0
	0,0
	0,-0
 59	584.574257425743,0
	0,-0
	0,-0
	0,0
	0,-0
 60	594.465346534654,0
	0,-0
	0,-0
	0,0
	0,-0
 61	604.356435643565,0
	0,-0
	0,-0
	0,0
	0,-0
 62	614.247524752475,0
	0,-0
	0,-0
	0,0
	0,-0
 63	624.138613861386,0
	0,-0
	0,-0
	0,0
	0,-0
 64	634.029702970297,0
	0,-0
	0,-0
	0,0
	0,-0
 65	643.920792079208,0
	0,-0
	0,-0
	0,0
	0,-0
 66	653.811881188119,0
	0,-0
	0,-0
	0,0
	0,-0
 67	663.70297029703,0
	0,-0
	0,-0
	0,0
	0,-0
 68	673.594059405941,0
	0,-0
	0,-0
	0,0
	0,-0
 69	683.485148514852,0
	0,-0
	0,-0
	0,0
	0,-0
 70	693.376237623763,0
	0,-0
	0,-0
	0,0
	0,-0
 71	703.267326732674,0
	0,-0
	0,-0
	0,0
	0,-0
 72	713.158415841585,0
	0,-0
	0,-0
	0,0
	0,-0
 73	723.049504950496,0
	0,-0
	0,-0
	0,0
	0,-0
 74	732.940594059407,0
	0,-0
	0,-0
	0,0
	0,-0
 75	742.831683168318,0
	0,-0
	0,-0
	0,0
	0,-0
 76	752.722772277229,0
	0,-0
	0,-0
	0,0
	0,-0
 77	762.613861386139,0
	0,-0
	0,-0
	0,0
	0,-0
 78	772.50495049505,0
	0,-0
	0,-0
	0,0
	0,-0
 79	782.396039603961,0
	0,-0
	0,-0
	0,0
	0,-0
 80	792.287128712872,0
	0,-0
	0,-0
	0,0
	0,-0
 81	802.178217821783,0
	0,-0
	0,-0
	0,0
	0,-0
 82	812.069306930694,0
	0,-0
	0,-0
	0,0
	0,-0
 83	821.960396039605,0
	0,-0
	0,-0
	0,0
	0,-0
 84	831.851485148516,0
	0,-0
	0,-0
	0,0
	0,-0
 85	841.742574257427,0
	0,-0
	0,-0
	0,0
	0,-0
 86	851.633663366338,0
	0,-0
	0,-0
	0,0
	0,-0
 87	861.524752475249,0
	0,-0
	0,-0
	0,0
	0,-0
 88	871.41584158416,0
	0,-0
	0,-0
	0,0
	0,-0
 89	881.306930693071,0
	0,-0
	0,-0
	0,0
	0,-0
 90	891.198019801982,0
	0,-0
	0,-0
	0,0
	0,-0
 91	901.089108910892,0
	0,-0
	0,-0
	0,0
	0,-0
 92	910.980198019803,0
	0,-0
	0,-0
	0,0
	0,-0
 93	920.871287128714,0
	0,-0
	0,-0
	0,0
	0,-0
 94	930.762376237625,0
	0,-0
	0,-0
	0,0
	0,-0
 95	940.653465346536,0
	0,-0
	0,-0
	0,0
	0,-0
 96	950.544554455447,0
	0,-0
	0,-0
	0,0
	0,-0
 97	960.435643564358,0
	0,-0
	0,-0
	0,0
	0,-0
 98	970.326732673269,0
	0,-0
	0,-0
	0,0
	0,-0
 99	980.21782178218,0
	0,-0
	0,-0
	0,0
	0,-0
 100	990.108910891091,0
	0,-0
	0,-0
	0,0
	0,-0
 101	1000,0
	0,-0
	0,-0
	0,0
	0,-0
Plotname: DC Analysis `adc': rawinst1:dc = (0 V -> 1 V)
Flags: real
No. Variables:        5
No. Points:       51
Variables:	0	dc	V
		1	rawinst0:in	A plot=0 grid=0
		2	inst0:pwr_vdd	A plot=0 grid=0
		3	inst0.out	V plot=0 grid=0
		4	inst0.pwr_vdd	V plot=0 grid=0
Values:
 0	0	0	0
	0	0
 1	0.02	0.0005	0.0005
	0.01	0.02
 2	0.04	0.001	0.001
	0.02	0.04
 3	0.06	0.0015	0.0015
	0.03	0.06
 4	0.08	0.002	0.002
	0.04	0.08
 5	0.1	0.0025	0.0025
	0.05	0.1
 6	0.12	0.003	0.003
	0.06	0.12
 7	0.14	0.0035	0.0035
	0.07	0.14
 8	0.16	0.004	0.004
	0.08	0.16
 9	0.18	0.0045	0.0045
	0.09	0.18
 10	0.2	0.005	0.005
	0.1	0.2
 11	0.22	0.0055	0.0055
	0.11	0.22
 12	0.24	0.006	0.006
	0.12	0.24
 13	0.26	0.0065	0.0065
	0.13	0.26
 14	0.28	0.007	0.007
	0.14	0.28
 15	0.3	0.0075	0.0075
	0.15	0.3
 16	0.32	0.008	0.008
	0.16	0.32
 17	0.34	0.0085	0.0085
	0.17	0.34
 18	0.36	0.009	0.009
	0.18	0.36
 19	0.38	0.0095	0.0095
	0.19	0.38
 20	0.4	0.01	0.01
	0.2	0.4
 21	0.42	0.0105	0.0105
	0.21	0.42
 22	0.44	0.011	0.011
	0.22	0.44
 23	0.46	0.0115	0.0115
	0.23	0.46
 24	0.48	0.012	0.012
	0.24	0.48
 25	0.5	0.0125	0.0125
	0.25	0.5
 26	0.52	0.013	0.013
	0.26	0.52
 27	0.54	0.0135	0.0135
	0.27	0.54
 28	0.56	0.014	0.014
	0.28	0.56
 29	0.58	0.0145	0.0145
	0.29	0.58
 30	0.6	0.015	0.015
	0.3	0.6
 31	0.62	0.0155	0.0155
	0.31	0.62
 32	0.64	0.016	0.016
	0.32	0.64
 33	0.66	0.0165	0.0165
	0.33	0.66
 34	0.68	0.017	0.017
	0.34	0.68
 35	0.7	0.0175	0.0175
	0.35	0.7
 36	0.72	0.018	0.018
	0.36	0.72
 37	0.74	0.0185	0.0185
	0.37	0.74
 38	0.76	0.019	0.019
	0.38	0.76
 39	0.78	0.0195	0.0195
	0.39	0.78
 40	0.8	0.02	0.02
	0.4	0.8
 41	0.82	0.0205	0.0205
	0.41	0.82
 42	0.84	0.021	0.021
	0.42	0.84
 43	0.86	0.0215	0.0215
	0.43	0.86
 44	0.88	0.022	0.022
	0.44	0.88
 45	0.9	0.0225	0.0225
	0.45	0.9
 46	0.92	0.023	0.023
	0.46	0.92
 47	0.940000000000001	0.0235	0.0235
	0.47	0.940000000000001
 48	0.960000000000001	0.024	0.024
	0.48	0.960000000000001
 49	0.980000000000001	0.0245	0.0245
	0.49	0.980000000000001
 50	1	0.025	0.025
	0.5	1
Plotname: Noise Analysis `anoise': freq = (1 Hz -> 1 kHz)
Flags: real
No. Variables:        6
No. Points:      102
Variables:	0	freq	Hz
		1	inst0.res1.rn	V^2/Hz plot=0 grid=0
		2	inst0.res1.total	V^2/Hz plot=0 grid=0
		3	inst0.res0.rn	V^2/Hz plot=0 grid=0
		4	inst0.res0.total	V^2/Hz plot=0 grid=0
		5	out	V/sqrt(Hz) plot=0 grid=0
Values:
 0	1	8.2878774678e-20	8.2878774678e-20
	8.2878774678e-20	8.2878774678e-20	4.07133331177883e-10
 1	10.8910891089109	8.2878774678e-20	8.2878774678e-20
	8.2878774678e-20	8.2878774678e-20	4.07133331177883e-10
 2	20.7821782178218	8.2878774678e-20	8.2878774678e-20
	8.2878774678e-20	8.2878774678e-20	4.07133331177883e-10
 3	30.6732673267327	8.2878774678e-20	8.2878774678e-20
	8.2878774678e-20	8.2878774678e-20	4.07133331177883e-10
 4	40.5643564356436	8.2878774678e-20	8.2878774678e-20
	8.2878774678e-20	8.2878774678e-20	4.07133331177883e-10
 5	50.4554455445545	8.2878774678e-20	8.2878774678e-20
	8.2878774678e-20	8.2878774678e-20	4.07133331177883e-10
 6	60.3465346534653	8.2878774678e-20	8.2878774678e-20
	8.2878774678e-20	8.2878774678e-20	4.07133331177883e-10
 7	70.2376237623762	8.2878774678e-20	8.2878774678e-20
	8.2878774678e-20	8.2878774678e-20	4.07133331177883e-10
 8	80.1287128712871	8.2878774678e-20	8.2878774678e-20
	8.2878774678e-20	8.2878774678e-20	4.07133331177883e-10
 9	90.019801980198	8.2878774678e-20	8.2878774678e-20
	8.2878774678e-20	8.2878774678e-20	4.07133331177883e-10
 10	99.9108910891089	8.2878774678e-20	8.2878774678e-20
	8.2878774678e-20	8.2878774678e-20	4.07133331177883e-10
 11	109.80198019802	8.2878774678e-20	8.2878774678e-20
	8.2878774678e-20	8.2878774678e-20	4.07133331177883e-10
 12	119.693069306931	8.2878774678e-20	8.2878774678e-20
	8.2878774678e-20	8.2878774678e-20	4.07133331177883e-10
 13	129.584158415842	8.2878774678e-20	8.2878774678e-20
	8.2878774678e-20	8.2878774678e-20	4.07133331177883e-10
 14	139.475247524752	8.2878774678e-20	8.2878774678e-20
	8.2878774678e-20	8.2878774678e-20	4.07133331177883e-10
 15	149.366336633663	8.2878774678e-20	8.2878774678e-20
	8.2878774678e-20	8.2878774678e-20	4.07133331177883e-10
 16	159.257425742574	8.2878774678e-20	8.2878774678e-20
	8.2878774678e-20	8.2878774678e-20	4.07133331177883e-10
 17	169.148514851485	8.2878774678e-20	8.2878774678e-20
	8.2878774678e-20	8.2878774678e-20	4.07133331177883e-10
 18	179.039603960396	8.2878774678e-20	8.2878774678e-20
	8.2878774678e-20	8.2878774678e-20	4.07133331177883e-10
 19	188.930693069307	8.2878774678e-20	8.2878774678e-20
	8.2878774678e-20	8.2878774678e-20	4.07133331177883e-10
 20	198.821782178218	8.2878774678e-20	8.2878774678e-20
	8.2878774678e-20	8.2878774678e-20	4.07133331177883e-10
 21	208.712871287129	8.2878774678e-20	8.2878774678e-20
	8.2878774678e-20	8.2878774678e-20	4.07133331177883e-10
 22	218.60396039604	8.2878774678e-20	8.2878774678e-20
	8.2878774678e-20	8.2878774678e-20	4.07133331177883e-10
 23	228.495049504951	8.2878774678e-20	8.2878774678e-20
	8.2878774678e-20	8.2878774678e-20	4.07133331177883e-10
 24	238.386138613862	8.2878774678e-20	8.2878774678e-20
	8.2878774678e-20	8.2878774678e-20	4.07133331177883e-10
 25	248.277227722772	8.2878774678e-20	8.2878774678e-20
	8.2878774678e-20	8.2878774678e-20	4.07133331177883e-10
 26	258.168316831683	8.2878774678e-20	8.2878774678e-20
	8.2878774678e-20	8.2878774678e-20	4.07133331177883e-10
 27	268.059405940594	8.2878774678e-20	8.2878774678e-20
	8.2878774678e-20	8.2878774678e-20	4.07133331177883e-10
 28	277.950495049505	8.2878774678e-20	8.2878774678e-20
	8.2878774678e-20	8.2878774678e-20	4.07133331177883e-10
 29	287.841584158416	8.2878774678e-20	8.2878774678e-20
	8.2878774678e-20	8.2878774678e-20	4.07133331177883e-10
 30	297.732673267327	8.2878774678e-20	8.2878774678e-20
	8.2878774678e-20	8.2878774678e-20	4.07133331177883e-10
 31	307.623762376238	8.2878774678e-20	8.2878774678e-20
	8.2878774678e-20	8.2878774678e-20	4.07133331177883e-10
 32	317.514851485149	8.2878774678e-20	8.2878774678e-20
	8.2878774678e-20	8.2878774678e-20	4.07133331177883e-10
 33	327.405940594059	8.2878774678e-20	8.2878774678e-20
	8.2878774678e-20	8.2878774678e-20	4.07133331177883e-10
 34	337.29702970297	8.2878774678e-20	8.2878774678e-20
	8.2878774678e-20	8.2878774678e-20	4.07133331177883e-10
 35	347.188118811881	8.2878774678e-20	8.2878774678e-20
	8.2878774678e-20	8.2878774678e-20	4.07133331177883e-10
 36	357.079207920792	8.2878774678e-20	8.2878774678e-20
	8.2878774678e-20	8.2878774678e-20	4.07133331177883e-10
 37	366.970297029703	8.2878774678e-20	8.2878774678e-20
	8.2878774678e-20	8.2878774678e-20	4.07133331177883e-10
 38	376.861386138614	8.2878774678e-20	8.2878774678e-20
	8.2878774678e-20	8.2878774678e-20	4.07133331177883e-10
 39	386.752475247525	8.2878774678e-20	8.2878774678e-20
	8.2878774678e-20	8.2878774678e-20	4.07133331177883e-10
 40	396.643564356436	8.2878774678e-20	8.2878774678e-20
	8.2878774678e-20	8.2878774678e-20	4.07133331177883e-10
 41	406.534653465346	8.2878774678e-20	8.2878774678e-20
	8.2878774678e-20	8.2878774678e-20	4.07133331177883e-10
 42	416.425742574257	8.2878774678e-20	8.2878774678e-20
	8.2878774678e-20	8.2878774678e-20	4.07133331177883e-10
 43	426.316831683168	8.2878774678e-20	8.2878774678e-20
	8.2878774678e-20	8.2878774678e-20	4.07133331177883e-10
 44	436.207920792079	8.2878774678e-20	8.2878774678e-20
	8.2878774678e-20	8.2878774678e-20	4.07133331177883e-10
 45	446.09900990099	8.2878774678e-20	8.2878774678e-20
	8.2878774678e-20	8.2878774678e-20	4.07133331177883e-10
 46	455.990099009901	8.2878774678e-20	8.2878774678e-20
	8.2878774678e-20	8.2878774678e-20	4.07133331177883e-10
 47	465.881188118812	8.2878774678e-20	8.2878774678e-20
	8.2878774678e-20	8.2878774678e-20	4.07133331177883e-10
 48	475.772277227723	8.2878774678e-20	8.2878774678e-20
	8.2878774678e-20	8.2878774678e-20	4.07133331177883e-10
 49	485.663366336633	8.2878774678e-20	8.2878774678e-20
	8.2878774678e-20	8.2878774678e-20	4.07133331177883e-10
 50	495.554455445544	8.2878774678e-20	8.2878774678e-20
	8.2878774678e-20	8.2878774678e-20	4.07133331177883e-10
 51	505.445544554455	8.2878774678e-20	8.2878774678e-20
	8.2878774678e-20	8.2878774678e-20	4.07133331177883e-10
 52	515.336633663366	8.2878774678e-20	8.2878774678e-20
	8.2878774678e-20	8.2878774678e-20	4.07133331177883e-10
 53	525.227722772277	8.2878774678e-20	8.2878774678e-20
	8.2878774678e-20	8.2878774678e-20	4.07133331177883e-10
 54	535.118811881188	8.2878774678e-20	8.2878774678e-20
	8.2878774678e-20	8.2878774678e-20	4.07133331177883e-10
 55	545.009900990099	8.2878774678e-20	8.2878774678e-20
	8.2878774678e-20	8.2878774678e-20	4.07133331177883e-10
 56	554.90099009901	8.2878774678e-20	8.2878774678e-20
	8.2878774678e-20	8.2878774678e-20	4.07133331177883e-10
 57	564.792079207921	8.2878774678e-20	8.2878774678e-20
	8.2878774678e-20	8.2878774678e-20	4.07133331177883e-10
 58	574.683168316832	8.2878774678e-20	8.2878774678e-20
	8.2878774678e-20	8.2878774678e-20	4.07133331177883e-10
 59	584.574257425743	8.2878774678e-20	8.2878774678e-20
	8.2878774678e-20	8.2878774678e-20	4.07133331177883e-10
 60	594.465346534654	8.2878774678e-20	8.2878774678e-20
	8.2878774678e-20	8.2878774678e-20	4.07133331177883e-10
 61	604.356435643565	8.2878774678e-20	8.2878774678e-20
	8.2878774678e-20	8.2878774678e-20	4.07133331177883e-10
 62	614.247524752475	8.2878774678e-20	8.2878774678e-20
	8.2878774678e-20	8.2878774678e-20	4.07133331177883e-10
 63	624.138613861386	8.2878774678e-20	8.2878774678e-20
	8.2878774678e-20	8.2878774678e-20	4.07133331177883e-10
 64	634.029702970297	8.2878774678e-20	8.2878774678e-20
	8.2878774678e-20	8.2878774678e-20	4.07133331177883e-10
 65	643.920792079208	8.2878774678e-20	8.2878774678e-20
	8.2878774678e-20	8.2878774678e-20	4.07133331177883e-10
 66	653.811881188119	8.2878774678e-20	8.2878774678e-20
	8.2878774678e-20	8.2878774678e-20	4.07133331177883e-10
 67	663.70297029703	8.2878774678e-20	8.2878774678e-20
	8.2878774678e-20	8.2878774678e-20	4.07133331177883e-10
 68	673.594059405941	8.2878774678e-20	8.2878774678e-20
	8.2878774678e-20	8.2878774678e-20	4.07133331177883e-10
 69	683.485148514852	8.2878774678e-20	8.2878774678e-20
	8.2878774678e-20	8.2878774678e-20	4.07133331177883e-10
 70	693.376237623763	8.2878774678e-20	8.2878774678e-20
	8.2878774678e-20	8.2878774678e-20	4.07133331177883e-10
 71	703.267326732674	8.2878774678e-20	8.2878774678e-20
	8.2878774678e-20	8.2878774678e-20	4.07133331177883e-10
 72	713.158415841585	8.2878774678e-20	8.2878774678e-20
	8.2878774678e-20	8.2878774678e-20	4.07133331177883e-10
 73	723.049504950496	8.2878774678e-20	8.2878774678e-20
	8.2878774678e-20	8.2878774678e-20	4.07133331177883e-10
 74	732.940594059407	8.2878774678e-20	8.2878774678e-20
	8.2878774678e-20	8.2878774678e-20	4.07133331177883e-10
 75	742.831683168318	8.2878774678e-20	8.2878774678e-20
	8.2878774678e-20	8.2878774678e-20	4.07133331177883e-10
 76	752.722772277229	8.2878774678e-20	8.2878774678e-20
	8.2878774678e-20	8.2878774678e-20	4.07133331177883e-10
 77	762.613861386139	8.2878774678e-20	8.2878774678e-20
	8.2878774678e-20	8.2878774678e-20	4.07133331177883e-10
 78	772.50495049505	8.2878774678e-20	8.2878774678e-20
	8.2878774678e-20	8.2878774678e-20	4.07133331177883e-10
 79	782.396039603961	8.2878774678e-20	8.2878774678e-20
	8.2878774678e-20	8.2878774678e-20	4.07133331177883e-10
 80	792.287128712872	8.2878774678e-20	8.2878774678e-20
	8.2878774678e-20	8.2878774678e-20	4.07133331177883e-10
 81	802.178217821783	8.2878774678e-20	8.2878774678e-20
	8.2878774678e-20	8.2878774678e-20	4.07133331177883e-10
 82	812.069306930694	8.2878774678e-20	8.2878774678e-20
	8.2878774678e-20	8.2878774678e-20	4.07133331177883e-10
 83	821.960396039605	8.2878774678e-20	8.2878774678e-20
	8.2878774678e-20	8.2878774678e-20	4.07133331177883e-10
 84	831.851485148516	8.2878774678e-20	8.2878774678e-20
	8.2878774678e-20	8.2878774678e-20	4.07133331177883e-10
 85	841.742574257427	8.2878774678e-20	8.2878774678e-20
	8.2878774678e-20	8.2878774678e-20	4.07133331177883e-10
 86	851.633663366338	8.2878774678e-20	8.2878774678e-20
	8.2878774678e-20	8.2878774678e-20	4.07133331177883e-10
 87	861.524752475249	8.2878774678e-20	8.2878774678e-20
	8.2878774678e-20	8.2878774678e-20	4.07133331177883e-10
 88	871.41584158416	8.2878774678e-20	8.2878774678e-20
	8.2878774678e-20	8.2878774678e-20	4.07133331177883e-10
 89	881.306930693071	8.2878774678e-20	8.2878774678e-20
	8.2878774678e-20	8.2878774678e-20	4.07133331177883e-10
 90	891.198019801982	8.2878774678e-20	8.2878774678e-20
	8.2878774678e-20	8.2878774678e-20	4.07133331177883e-10
 91	901.089108910892	8.2878774678e-20	8.2878774678e-20
	8.2878774678e-20	8.2878774678e-20	4.07133331177883e-10
 92	910.980198019803	8.2878774678e-20	8.2878774678e-20
	8.2878774678e-20	8.2878774678e-20	4.07133331177883e-10
 93	920.871287128714	8.2878774678e-20	8.2878774678e-20
	8.2878774678e-20	8.2878774678e-20	4.07133331177883e-10
 94	930.762376237625	8.2878774678e-20	8.2878774678e-20
