Title: * generated by ngspice plugin for substrate
Date: Fri Dec 30 21:52:07  2022
Plotname: AC Analysis
Flags: complex
No. Variables: 4
No. Points: 13      
Variables:
	0	frequency	frequency	grid=3
	1	v(xdut.vdd)	voltage plot=0 grid=0
	2	v(xdut.out)	voltage
	3	i(v.xdut.vdd)	current
Values:
0		1.000000000000000e-03,6.951604321346058e-310
	1.000000000000000e+00,0.000000000000000e+00
	3.333333333333333e-01,0.000000000000000e+00
	-3.333333333333334e-04,0.000000000000000e+00
1		1.778279410038923e-03,6.951604321346058e-310
	1.000000000000000e+00,0.000000000000000e+00
	3.333333333333333e-01,0.000000000000000e+00
	-3.333333333333334e-04,0.000000000000000e+00
2		3.162277660168380e-03,6.951604321346058e-310
	1.000000000000000e+00,0.000000000000000e+00
	3.333333333333333e-01,0.000000000000000e+00
	-3.333333333333334e-04,0.000000000000000e+00
3		5.623413251903492e-03,6.951604321346058e-310
	1.000000000000000e+00,0.000000000000000e+00
	3.333333333333333e-01,0.000000000000000e+00
	-3.333333333333334e-04,0.000000000000000e+00
4		1.000000000000000e-02,6.951604321346058e-310
	1.000000000000000e+00,0.000000000000000e+00
	3.333333333333333e-01,0.000000000000000e+00
	-3.333333333333334e-04,0.000000000000000e+00
5		1.778279410038924e-02,6.951604321346058e-310
	1.000000000000000e+00,0.000000000000000e+00
	3.333333333333333e-01,0.000000000000000e+00
	-3.333333333333334e-04,0.000000000000000e+00
6		3.162277660168381e-02,6.951604321346058e-310
	1.000000000000000e+00,0.000000000000000e+00
	3.333333333333333e-01,0.000000000000000e+00
	-3.333333333333334e-04,0.000000000000000e+00
7		5.623413251903495e-02,6.951604321346058e-310
	1.000000000000000e+00,0.000000000000000e+00
	3.333333333333333e-01,0.000000000000000e+00
	-3.333333333333334e-04,0.000000000000000e+00
8		1.000000000000001e-01,6.951604321346058e-310
	1.000000000000000e+00,0.000000000000000e+00
	3.333333333333333e-01,0.000000000000000e+00
	-3.333333333333334e-04,0.000000000000000e+00
9		1.778279410038924e-01,6.951604321346058e-310
	1.000000000000000e+00,0.000000000000000e+00
	3.333333333333333e-01,0.000000000000000e+00
	-3.333333333333334e-04,0.000000000000000e+00
10		3.162277660168382e-01,6.951604321346058e-310
	1.000000000000000e+00,0.000000000000000e+00
	3.333333333333333e-01,0.000000000000000e+00
	-3.333333333333334e-04,0.000000000000000e+00
11		5.623413251903496e-01,6.951604321346058e-310
	1.000000000000000e+00,0.000000000000000e+00
	3.333333333333333e-01,0.000000000000000e+00
	-3.333333333333334e-04,0.000000000000000e+00
12		1.000000000000001e+00,6.951604321346058e-310
	1.000000000000000e+00,0.000000000000000e+00
	3.333333333333333e-01,0.000000000000000e+00
	-3.333333333333334e-04,0.000000000000000e+00
Title: * generated by ngspice plugin for substrate
Date: Fri Dec 30 21:52:07  2022
Plotname: DC transfer characteristic
Flags: real
No. Variables: 4
No. Points: 6       
Variables:
	0	temp-sweep	temp-sweep
	1	v(xdut.vdd)	voltage
	2	v(xdut.out)	voltage
	3	i(v.xdut.vdd)	current
Values:
0		2.000000000000000e+02
	1.800000000000000e+00
	6.000000000000000e-01
	-6.000000000000001e-04
1		2.200000000000000e+02
	1.800000000000000e+00
	6.000000000000000e-01
	-6.000000000000001e-04
2		2.400000000000000e+02
	1.800000000000000e+00
	6.000000000000000e-01
	-6.000000000000001e-04
3		2.600000000000000e+02
	1.800000000000000e+00
	6.000000000000000e-01
	-6.000000000000001e-04
4		2.800000000000000e+02
	1.800000000000000e+00
	6.000000000000000e-01
	-6.000000000000001e-04
5		3.000000000000000e+02
	1.800000000000000e+00
	6.000000000000000e-01
	-6.000000000000001e-04
Title: * generated by ngspice plugin for substrate
Date: Fri Dec 30 21:52:07  2022
Plotname: Operating Point
Flags: real
No. Variables: 3
No. Points: 1       
Variables:
	0	v(xdut.vdd)	voltage
	1	v(xdut.out)	voltage
	2	i(v.xdut.vdd)	current
Values:
0		1.800000000000000e+00
	6.000000000000000e-01
	-6.000000000000001e-04
Title: * generated by ngspice plugin for substrate
Date: Fri Dec 30 21:52:07  2022
Plotname: Transient Analysis
Flags: real
No. Variables: 4
No. Points: 59      
Variables:
	0	time	time
	1	v(xdut.vdd)	voltage
	2	v(xdut.out)	voltage
	3	i(v.xdut.vdd)	current
Values:
0		0.000000000000000e+00
	1.800000000000000e+00
	6.000000000000000e-01
	-6.000000000000001e-04
1		5.000000000000001e-07
	1.800000000000000e+00
	6.000000000000000e-01
	-6.000000000000001e-04
2		1.000000000000000e-06
	1.800000000000000e+00
	6.000000000000000e-01
	-6.000000000000001e-04
3		2.000000000000000e-06
	1.800000000000000e+00
	6.000000000000000e-01
	-6.000000000000001e-04
4		4.000000000000001e-06
	1.800000000000000e+00
	6.000000000000000e-01
	-6.000000000000001e-04
5		8.000000000000001e-06
	1.800000000000000e+00
	6.000000000000000e-01
	-6.000000000000001e-04
6		1.600000000000000e-05
	1.800000000000000e+00
	6.000000000000000e-01
	-6.000000000000001e-04
7		3.200000000000001e-05
	1.800000000000000e+00
	6.000000000000000e-01
	-6.000000000000001e-04
8		6.400000000000001e-05
	1.800000000000000e+00
	6.000000000000000e-01
	-6.000000000000001e-04
9		1.280000000000000e-04
	1.800000000000000e+00
	6.000000000000000e-01
	-6.000000000000001e-04
10		2.280000000000000e-04
	1.800000000000000e+00
	6.000000000000000e-01
	-6.000000000000001e-04
11		3.280000000000000e-04
	1.800000000000000e+00
	6.000000000000000e-01
	-6.000000000000001e-04
12		4.280000000000000e-04
	1.800000000000000e+00
	6.000000000000000e-01
	-6.000000000000001e-04
13		5.280000000000000e-04
	1.800000000000000e+00
	6.000000000000000e-01
	-6.000000000000001e-04
14		6.280000000000001e-04
	1.800000000000000e+00
	6.000000000000000e-01
	-6.000000000000001e-04
15		7.280000000000001e-04
	1.800000000000000e+00
	6.000000000000000e-01
	-6.000000000000001e-04
16		8.280000000000002e-04
	1.800000000000000e+00
	6.000000000000000e-01
	-6.000000000000001e-04
17		9.280000000000002e-04
	1.800000000000000e+00
	6.000000000000000e-01
	-6.000000000000001e-04
18		1.028000000000000e-03
	1.800000000000000e+00
	6.000000000000000e-01
	-6.000000000000001e-04
19		1.128000000000000e-03
	1.800000000000000e+00
	6.000000000000000e-01
	-6.000000000000001e-04
20		1.228000000000000e-03
	1.800000000000000e+00
	6.000000000000000e-01
	-6.000000000000001e-04
21		1.328000000000000e-03
	1.800000000000000e+00
	6.000000000000000e-01
	-6.000000000000001e-04
22		1.428000000000000e-03
	1.800000000000000e+00
	6.000000000000000e-01
	-6.000000000000001e-04
23		1.528000000000000e-03
	1.800000000000000e+00
	6.000000000000000e-01
	-6.000000000000001e-04
24		1.628000000000001e-03
	1.800000000000000e+00
	6.000000000000000e-01
	-6.000000000000001e-04
25		1.728000000000001e-03
	1.800000000000000e+00
	6.000000000000000e-01
	-6.000000000000001e-04
26		1.828000000000001e-03
	1.800000000000000e+00
	6.000000000000000e-01
	-6.000000000000001e-04
27		1.928000000000001e-03
	1.800000000000000e+00
	6.000000000000000e-01
	-6.000000000000001e-04
28		2.028000000000001e-03
	1.800000000000000e+00
	6.000000000000000e-01
	-6.000000000000001e-04
29		2.128000000000001e-03
	1.800000000000000e+00
	6.000000000000000e-01
	-6.000000000000001e-04
30		2.228000000000000e-03
	1.800000000000000e+00
	6.000000000000000e-01
	-6.000000000000001e-04
31		2.328000000000000e-03
	1.800000000000000e+00
	6.000000000000000e-01
	-6.000000000000001e-04
32		2.428000000000000e-03
	1.800000000000000e+00
	6.000000000000000e-01
	-6.000000000000001e-04
33		2.528000000000000e-03
	1.800000000000000e+00
	6.000000000000000e-01
	-6.000000000000001e-04
34		2.628000000000000e-03
	1.800000000000000e+00
	6.000000000000000e-01
	-6.000000000000001e-04
35		2.728000000000000e-03
	1.800000000000000e+00
	6.000000000000000e-01
	-6.000000000000001e-04
36		2.827999999999999e-03
	1.800000000000000e+00
	6.000000000000000e-01
	-6.000000000000001e-04
37		2.927999999999999e-03
	1.800000000000000e+00
	6.000000000000000e-01
	-6.000000000000001e-04
38		3.027999999999999e-03
	1.800000000000000e+00
	6.000000000000000e-01
	-6.000000000000001e-04
39		3.127999999999999e-03
	1.800000000000000e+00
	6.000000000000000e-01
	-6.000000000000001e-04
40		3.227999999999999e-03
	1.800000000000000e+00
	6.000000000000000e-01
	-6.000000000000001e-04
41		3.327999999999998e-03
	1.800000000000000e+00
	6.000000000000000e-01
	-6.000000000000001e-04
42		3.427999999999998e-03
	1.800000000000000e+00
	6.000000000000000e-01
	-6.000000000000001e-04
43		3.527999999999998e-03
	1.800000000000000e+00
	6.000000000000000e-01
	-6.000000000000001e-04
44		3.627999999999998e-03
	1.800000000000000e+00
	6.000000000000000e-01
	-6.000000000000001e-04
45		3.727999999999998e-03
	1.800000000000000e+00
	6.000000000000000e-01
	-6.000000000000001e-04
46		3.827999999999998e-03
	1.800000000000000e+00
	6.000000000000000e-01
	-6.000000000000001e-04
47		3.927999999999997e-03
	1.800000000000000e+00
	6.000000000000000e-01
	-6.000000000000001e-04
48		4.027999999999998e-03
	1.800000000000000e+00
	6.000000000000000e-01
	-6.000000000000001e-04
49		4.127999999999998e-03
	1.800000000000000e+00
	6.000000000000000e-01
	-6.000000000000001e-04
50		4.227999999999998e-03
	1.800000000000000e+00
	6.000000000000000e-01
	-6.000000000000001e-04
51		4.327999999999999e-03
	1.800000000000000e+00
	6.000000000000000e-01
	-6.000000000000001e-04
52		4.427999999999999e-03
	1.800000000000000e+00
	6.000000000000000e-01
	-6.000000000000001e-04
53		4.527999999999999e-03
	1.800000000000000e+00
	6.000000000000000e-01
	-6.000000000000001e-04
54		4.627999999999999e-03
	1.800000000000000e+00
	6.000000000000000e-01
	-6.000000000000001e-04
55		4.728000000000000e-03
	1.800000000000000e+00
	6.000000000000000e-01
	-6.000000000000001e-04
56		4.828000000000000e-03
	1.800000000000000e+00
	6.000000000000000e-01
	-6.000000000000001e-04
57		4.928000000000000e-03
	1.800000000000000e+00
	6.000000000000000e-01
	-6.000000000000001e-04
58		5.000000000000000e-03
	1.800000000000000e+00
	6.000000000000000e-01
	-6.000000000000001e-04
